date Fri Mar 17 14:50:38 2017
base hex  timestamps absolute
no internal events logged
   0.000000 2 18FF90F3x       Tx   d 8 01 A8 00 00 00 00 00 00
   0.000000 2 18FF10F3x       Tx   d 8 00 00 00 00 00 00 88 13
   0.000000 2 18FF11F3x       Tx   d 8 00 00 80 A2 00 00 00 00
   0.000000 2 18FF14F3x       Tx   d 8 00 20 4E 00 00 0C 00 00
   0.000000 2 18FF91F3x       Tx   d 8 00 00 00 01 00 00 00 00
   0.000000 2 18FFB2F3x       Tx   d 8 25 E8 03 F4 81 BB 80 3E
   0.000000 2 18FFB3F3x       Tx   d 8 04 78 8C A0 B4 C8 DC F0
   0.000000 1 18EF49EFx       Tx   d 8 01 00 10 00 00 00 00 00
   0.000000 1 18FEF117x       Tx   d 8 00 00 00 00 00 00 00 00
   0.000000 1 18EBFFD7x       Tx   d 8 46 F4 10 00 00 00 00 00
   0.000000 1 18F00503x       Tx   d 8 00 00 00 7D 00 00 53 00
   0.000000 1 181000EFx       Tx   d 8 11 03 6E 00 00 00 10 27
   0.000000 1 181100EFx       Tx   d 8 00 00 6E 00 20 4E 20 4E
   0.250000 2 18FF90F3x       Tx   d 8 01 A8 00 00 00 00 00 00
   0.250000 2 18FF10F3x       Tx   d 8 00 00 00 00 00 00 88 13
   0.250000 2 18FF11F3x       Tx   d 8 00 00 80 A2 00 00 00 00
   0.250000 2 18FF14F3x       Tx   d 8 00 20 4E 00 00 0C 00 00
   0.250000 2 18FF91F3x       Tx   d 8 00 00 00 01 00 00 00 00
   0.250000 2 18FFB2F3x       Tx   d 8 24 E8 03 F4 81 BB 80 3E
   0.250000 2 18FFB3F3x       Tx   d 8 04 78 8C A0 B4 C8 DC F0
   0.250000 1 18EF49EFx       Tx   d 8 01 00 10 00 00 00 00 00
   0.250000 1 18FEF117x       Tx   d 8 00 00 00 00 00 00 00 00
   0.250000 1 18EBFFD7x       Tx   d 8 46 F4 10 00 00 00 00 00
   0.250000 1 18F00503x       Tx   d 8 00 00 00 7D 00 00 53 00
   0.250000 1 181000EFx       Tx   d 8 11 03 6E 00 00 00 10 27
   0.250000 1 181100EFx       Tx   d 8 00 00 6E 00 20 4E 20 4E
   0.500000 2 18FF90F3x       Tx   d 8 01 A8 00 00 00 00 00 00
   0.500000 2 18FF10F3x       Tx   d 8 00 00 00 00 00 00 88 13
   0.500000 2 18FF11F3x       Tx   d 8 00 00 80 A2 00 00 00 00
   0.500000 2 18FF14F3x       Tx   d 8 00 20 4E 00 00 0C 00 00
   0.500000 2 18FF91F3x       Tx   d 8 00 00 00 01 00 00 00 00
   0.500000 2 18FFB2F3x       Tx   d 8 23 E8 03 F4 81 BB 80 3E
   0.500000 2 18FFB3F3x       Tx   d 8 05 78 8C A0 B4 C8 DC F0
   0.500000 1 18EF49EFx       Tx   d 8 01 00 10 00 00 00 00 00
   0.500000 1 18FEF117x       Tx   d 8 00 00 00 00 00 00 00 00
   0.500000 1 18EBFFD7x       Tx   d 8 46 F4 10 00 00 00 00 00
   0.500000 1 18F00503x       Tx   d 8 00 00 00 7D 00 00 53 00
   0.500000 1 181000EFx       Tx   d 8 11 03 6E 00 00 00 10 27
   0.500000 1 181100EFx       Tx   d 8 00 00 6E 00 20 4E 20 4E
   0.750000 2 18FF90F3x       Tx   d 8 01 A8 00 00 00 00 00 00
   0.750000 2 18FF10F3x       Tx   d 8 00 00 00 00 00 00 88 13
   0.750000 2 18FF11F3x       Tx   d 8 00 00 80 A2 00 00 00 00
   0.750000 2 18FF14F3x       Tx   d 8 00 20 4E 00 00 0C 00 00
   0.750000 2 18FF91F3x       Tx   d 8 00 00 00 01 00 00 00 00
   0.750000 2 18FFB2F3x       Tx   d 8 23 E8 03 F4 81 BB 80 3E
   0.750000 2 18FFB3F3x       Tx   d 8 05 78 8C A0 B4 C8 DC F0
   0.750000 1 18EF49EFx       Tx   d 8 01 00 10 00 00 00 00 00
   0.750000 1 18FEF117x       Tx   d 8 00 00 00 00 00 00 00 00
   0.750000 1 18EBFFD7x       Tx   d 8 46 F4 10 00 00 00 00 00
   0.750000 1 18F00503x       Tx   d 8 00 00 00 7D 00 00 53 00
   0.750000 1 181000EFx       Tx   d 8 11 03 6E 00 00 00 10 27
   0.750000 1 181100EFx       Tx   d 8 00 00 6E 00 20 4E 20 4E
   1.000000 2 18FF90F3x       Tx   d 8 01 A8 00 00 00 00 00 00
   1.000000 2 18FF10F3x       Tx   d 8 00 00 00 00 00 00 88 13
   1.000000 2 18FF11F3x       Tx   d 8 00 00 80 A2 00 00 00 00
   1.000000 2 18FF14F3x       Tx   d 8 00 20 4E 00 00 0C 00 00
   1.000000 2 18FF91F3x       Tx   d 8 00 00 00 01 00 00 00 00
   1.000000 2 18FFB2F3x       Tx   d 8 22 E8 03 F4 81 BB 80 3E
   1.000000 2 18FFB3F3x       Tx   d 8 06 78 8C A0 B4 C8 DC F0
   1.000000 1 18EF49EFx       Tx   d 8 01 00 10 00 00 00 00 00
   1.000000 1 18FEF117x       Tx   d 8 00 00 00 00 00 00 00 00
   1.000000 1 18EBFFD7x       Tx   d 8 46 F4 10 00 00 00 00 00
   1.000000 1 18F00503x       Tx   d 8 00 00 00 7D 00 00 53 00
   1.000000 1 181000EFx       Tx   d 8 11 03 6E 00 00 00 10 27
   1.000000 1 181100EFx       Tx   d 8 00 00 6E 00 20 4E 20 4E
   1.250000 2 18FF90F3x       Tx   d 8 01 A8 00 00 00 00 00 00
   1.250000 2 18FF10F3x       Tx   d 8 00 00 00 00 00 00 88 13
   1.250000 2 18FF11F3x       Tx   d 8 00 00 80 A2 00 00 00 00
   1.250000 2 18FF14F3x       Tx   d 8 00 20 4E 00 00 0C 00 00
   1.250000 2 18FF91F3x       Tx   d 8 00 00 00 01 00 00 00 00
   1.250000 2 18FFB2F3x       Tx   d 8 21 E8 03 F4 81 BB 80 3E
   1.250000 2 18FFB3F3x       Tx   d 8 06 78 8C A0 B4 C8 DC F0
   1.250000 1 18EF49EFx       Tx   d 8 01 00 10 00 00 00 00 00
   1.250000 1 18FEF117x       Tx   d 8 00 00 00 00 00 00 00 00
   1.250000 1 18EBFFD7x       Tx   d 8 46 F4 10 00 00 00 00 00
   1.250000 1 18F00503x       Tx   d 8 00 00 00 7D 00 00 53 00
   1.250000 1 181000EFx       Tx   d 8 11 03 6E 00 00 00 10 27
   1.250000 1 181100EFx       Tx   d 8 00 00 6E 00 20 4E 20 4E
   1.500000 2 18FF90F3x       Tx   d 8 01 A8 00 00 00 00 00 00
   1.500000 2 18FF10F3x       Tx   d 8 00 00 00 00 00 00 88 13
   1.500000 2 18FF11F3x       Tx   d 8 00 00 80 A2 00 00 00 00
   1.500000 2 18FF14F3x       Tx   d 8 00 20 4E 00 00 0C 00 00
   1.500000 2 18FF91F3x       Tx   d 8 00 00 00 01 00 00 00 00
   1.500000 2 18FFB2F3x       Tx   d 8 21 E8 03 F4 81 BB 80 3E
   1.500000 2 18FFB3F3x       Tx   d 8 07 78 8C A0 B4 C8 DC F0
   1.500000 1 18EF49EFx       Tx   d 8 01 00 10 00 00 00 00 00
   1.500000 1 18FEF117x       Tx   d 8 00 00 00 00 00 00 00 00
   1.500000 1 18EBFFD7x       Tx   d 8 46 F4 10 00 00 00 00 00
   1.500000 1 18F00503x       Tx   d 8 00 00 00 7D 00 00 53 00
   1.500000 1 181000EFx       Tx   d 8 11 03 6E 00 00 00 10 27
   1.500000 1 181100EFx       Tx   d 8 00 00 6E 00 20 4E 20 4E
   1.750000 2 18FF90F3x       Tx   d 8 01 A8 00 00 00 00 00 00
   1.750000 2 18FF10F3x       Tx   d 8 00 00 00 00 00 00 88 13
   1.750000 2 18FF11F3x       Tx   d 8 00 00 80 A2 00 00 00 00
   1.750000 2 18FF14F3x       Tx   d 8 00 20 4E 00 00 0C 00 00
   1.750000 2 18FF91F3x       Tx   d 8 00 00 00 01 00 00 00 00
   1.750000 2 18FFB2F3x       Tx   d 8 20 E8 03 F4 81 BB 80 3E
   1.750000 2 18FFB3F3x       Tx   d 8 07 78 8C A0 B4 C8 DC F0
   1.750000 1 18EF49EFx       Tx   d 8 01 00 10 00 00 00 00 00
   1.750000 1 18FEF117x       Tx   d 8 00 00 00 00 00 00 00 00
   1.750000 1 18EBFFD7x       Tx   d 8 46 F4 10 00 00 00 00 00
   1.750000 1 18F00503x       Tx   d 8 00 00 00 7D 00 00 53 00
   1.750000 1 181000EFx       Tx   d 8 11 03 6E 00 00 00 10 27
   1.750000 1 181100EFx       Tx   d 8 00 00 6E 00 20 4E 20 4E
   2.000000 2 18FF90F3x       Tx   d 8 01 A8 00 00 00 00 00 00
   2.000000 2 18FF10F3x       Tx   d 8 00 00 00 00 00 00 88 13
   2.000000 2 18FF11F3x       Tx   d 8 00 00 80 A2 00 00 00 00
   2.000000 2 18FF14F3x       Tx   d 8 00 20 4E 00 00 0C 00 00
   2.000000 2 18FF91F3x       Tx   d 8 00 00 00 01 00 00 00 00
   2.000000 2 18FFB2F3x       Tx   d 8 20 E8 03 F4 81 BB 80 3E
   2.000000 2 18FFB3F3x       Tx   d 8 08 78 8C A0 B4 C8 DC F0
   2.000000 1 18EF49EFx       Tx   d 8 01 00 10 00 00 00 00 00
   2.000000 1 18FEF117x       Tx   d 8 00 00 00 00 00 00 00 00
   2.000000 1 18EBFFD7x       Tx   d 8 46 F4 10 00 00 00 00 00
   2.000000 1 18F00503x       Tx   d 8 00 00 00 7D 00 00 53 00
   2.000000 1 181000EFx       Tx   d 8 11 03 6E 00 00 00 10 27
   2.000000 1 181100EFx       Tx   d 8 00 00 6E 00 20 4E 20 4E
   2.250000 2 18FF90F3x       Tx   d 8 01 A8 00 00 00 00 00 00
   2.250000 2 18FF10F3x       Tx   d 8 00 00 00 00 00 00 88 13
   2.250000 2 18FF11F3x       Tx   d 8 00 00 80 A2 00 00 00 00
   2.250000 2 18FF14F3x       Tx   d 8 00 20 4E 00 00 0C 00 00
   2.250000 2 18FF91F3x       Tx   d 8 00 00 00 01 00 00 00 00
   2.250000 2 18FFB2F3x       Tx   d 8 1F E8 03 F4 81 BB 80 3E
   2.250000 2 18FFB3F3x       Tx   d 8 08 78 8C A0 B4 C8 DC F0
   2.250000 1 18EF49EFx       Tx   d 8 01 00 10 00 00 00 00 00
   2.250000 1 18FEF117x       Tx   d 8 00 00 00 00 00 00 00 00
   2.250000 1 18EBFFD7x       Tx   d 8 46 F4 10 00 00 00 00 00
   2.250000 1 18F00503x       Tx   d 8 00 00 00 7D 00 00 53 00
   2.250000 1 181000EFx       Tx   d 8 11 03 6E 00 00 00 10 27
   2.250000 1 181100EFx       Tx   d 8 00 00 6E 00 20 4E 20 4E
   2.500000 2 18FF90F3x       Tx   d 8 01 A8 00 00 00 00 00 00
   2.500000 2 18FF10F3x       Tx   d 8 00 00 00 00 00 00 88 13
   2.500000 2 18FF11F3x       Tx   d 8 00 00 80 A2 00 00 00 00
   2.500000 2 18FF14F3x       Tx   d 8 00 20 4E 00 00 0C 00 00
   2.500000 2 18FF91F3x       Tx   d 8 00 00 00 01 00 00 00 00
   2.500000 2 18FFB2F3x       Tx   d 8 1E E8 03 F4 81 BB 80 3E
   2.500000 2 18FFB3F3x       Tx   d 8 09 78 8C A0 B4 C8 DC F0
   2.500000 1 18EF49EFx       Tx   d 8 01 00 10 00 00 00 00 00
   2.500000 1 18FEF117x       Tx   d 8 00 00 00 00 00 00 00 00
   2.500000 1 18EBFFD7x       Tx   d 8 46 F4 10 00 00 00 00 00
   2.500000 1 18F00503x       Tx   d 8 00 00 00 7D 00 00 53 00
   2.500000 1 181000EFx       Tx   d 8 11 03 6E 00 00 00 10 27
   2.500000 1 181100EFx       Tx   d 8 00 00 6E 00 20 4E 20 4E
   2.750000 2 18FF90F3x       Tx   d 8 01 A8 00 00 00 00 00 00
   2.750000 2 18FF10F3x       Tx   d 8 00 00 00 00 00 00 88 13
   2.750000 2 18FF11F3x       Tx   d 8 00 00 80 A2 00 00 00 00
   2.750000 2 18FF14F3x       Tx   d 8 00 20 4E 00 00 0C 00 00
   2.750000 2 18FF91F3x       Tx   d 8 00 00 00 01 00 00 00 00
   2.750000 2 18FFB2F3x       Tx   d 8 1E E8 03 F4 81 BB 80 3E
   2.750000 2 18FFB3F3x       Tx   d 8 09 78 8C A0 B4 C8 DC F0
   2.750000 1 18EF49EFx       Tx   d 8 01 00 10 00 00 00 00 00
   2.750000 1 18FEF117x       Tx   d 8 00 00 00 00 00 00 00 00
   2.750000 1 18EBFFD7x       Tx   d 8 46 F4 10 00 00 00 00 00
   2.750000 1 18F00503x       Tx   d 8 00 00 00 7D 00 00 53 00
   2.750000 1 181000EFx       Tx   d 8 11 03 6E 00 00 00 10 27
   2.750000 1 181100EFx       Tx   d 8 00 00 6E 00 20 4E 20 4E
   3.000000 2 18FF90F3x       Tx   d 8 01 A8 00 00 00 00 00 00
   3.000000 2 18FF10F3x       Tx   d 8 00 00 00 00 00 00 88 13
   3.000000 2 18FF11F3x       Tx   d 8 00 00 80 A2 00 00 00 00
   3.000000 2 18FF14F3x       Tx   d 8 00 20 4E 00 00 0C 00 00
   3.000000 2 18FF91F3x       Tx   d 8 00 00 00 01 00 00 00 00
   3.000000 2 18FFB2F3x       Tx   d 8 1D E8 03 F4 81 BB 80 3E
   3.000000 2 18FFB3F3x       Tx   d 8 0A 78 8C A0 B4 C8 DC F0
   3.000000 1 18EF49EFx       Tx   d 8 01 00 10 00 00 00 00 00
   3.000000 1 18FEF117x       Tx   d 8 00 00 00 00 00 00 00 00
   3.000000 1 18EBFFD7x       Tx   d 8 46 F4 10 00 00 00 00 00
   3.000000 1 18F00503x       Tx   d 8 00 00 00 7D 00 00 53 00
   3.000000 1 181000EFx       Tx   d 8 11 03 6E 00 00 00 10 27
   3.000000 1 181100EFx       Tx   d 8 00 00 6E 00 20 4E 20 4E
   3.250000 2 18FF90F3x       Tx   d 8 01 A8 00 00 00 00 00 00
   3.250000 2 18FF10F3x       Tx   d 8 00 00 00 00 00 00 88 13
   3.250000 2 18FF11F3x       Tx   d 8 00 00 80 A2 00 00 00 00
   3.250000 2 18FF14F3x       Tx   d 8 00 20 4E 00 00 0C 00 00
   3.250000 2 18FF91F3x       Tx   d 8 00 00 00 01 00 00 00 00
   3.250000 2 18FFB2F3x       Tx   d 8 1D E8 03 F4 81 BB 80 3E
   3.250000 2 18FFB3F3x       Tx   d 8 0A 78 8C A0 B4 C8 DC F0
   3.250000 1 18EF49EFx       Tx   d 8 01 00 10 00 00 00 00 00
   3.250000 1 18FEF117x       Tx   d 8 00 00 00 00 00 00 00 00
   3.250000 1 18EBFFD7x       Tx   d 8 46 F4 10 00 00 00 00 00
   3.250000 1 18F00503x       Tx   d 8 00 00 00 7D 00 00 53 00
   3.250000 1 181000EFx       Tx   d 8 11 03 6E 00 00 00 10 27
   3.250000 1 181100EFx       Tx   d 8 00 00 6E 00 20 4E 20 4E
   3.500000 2 18FF90F3x       Tx   d 8 01 A8 00 00 00 00 00 00
   3.500000 2 18FF10F3x       Tx   d 8 00 00 00 00 00 00 88 13
   3.500000 2 18FF11F3x       Tx   d 8 00 00 80 A2 00 00 00 00
   3.500000 2 18FF14F3x       Tx   d 8 00 20 4E 00 00 0C 00 00
   3.500000 2 18FF91F3x       Tx   d 8 00 00 00 01 00 00 00 00
   3.500000 2 18FFB2F3x       Tx   d 8 1C E8 03 F4 81 BB 80 3E
   3.500000 2 18FFB3F3x       Tx   d 8 09 78 8C A0 B4 C8 DC F0
   3.500000 1 18EF49EFx       Tx   d 8 01 00 10 00 00 00 00 00
   3.500000 1 18FEF117x       Tx   d 8 00 00 00 00 00 00 00 00
   3.500000 1 18EBFFD7x       Tx   d 8 46 F4 10 00 00 00 00 00
   3.500000 1 18F00503x       Tx   d 8 00 00 00 7D 00 00 53 00
   3.500000 1 181000EFx       Tx   d 8 11 03 6E 00 00 00 10 27
   3.500000 1 181100EFx       Tx   d 8 00 00 6E 00 20 4E 20 4E
   3.750000 2 18FF90F3x       Tx   d 8 01 A8 00 00 00 00 00 00
   3.750000 2 18FF10F3x       Tx   d 8 00 00 00 00 00 00 88 13
   3.750000 2 18FF11F3x       Tx   d 8 00 00 80 A2 00 00 00 00
   3.750000 2 18FF14F3x       Tx   d 8 00 20 4E 00 00 0C 00 00
   3.750000 2 18FF91F3x       Tx   d 8 00 00 00 01 00 00 00 00
   3.750000 2 18FFB2F3x       Tx   d 8 1B E8 03 F4 81 BB 80 3E
   3.750000 2 18FFB3F3x       Tx   d 8 09 78 8C A0 B4 C8 DC F0
   3.750000 1 18EF49EFx       Tx   d 8 01 00 10 00 00 00 00 00
   3.750000 1 18FEF117x       Tx   d 8 00 00 00 00 00 00 00 00
   3.750000 1 18EBFFD7x       Tx   d 8 46 F4 10 00 00 00 00 00
   3.750000 1 18F00503x       Tx   d 8 00 00 00 7D 00 00 53 00
   3.750000 1 181000EFx       Tx   d 8 11 03 6E 00 00 00 10 27
   3.750000 1 181100EFx       Tx   d 8 00 00 6E 00 20 4E 20 4E
   4.000000 2 18FF90F3x       Tx   d 8 01 A8 00 00 00 00 00 00
   4.000000 2 18FF10F3x       Tx   d 8 00 00 00 00 00 00 88 13
   4.000000 2 18FF11F3x       Tx   d 8 00 00 80 A2 00 00 00 00
   4.000000 2 18FF14F3x       Tx   d 8 00 20 4E 00 00 0C 00 00
   4.000000 2 18FF91F3x       Tx   d 8 00 00 00 01 00 00 00 00
   4.000000 2 18FFB2F3x       Tx   d 8 1B E8 03 F4 81 BB 80 3E
   4.000000 2 18FFB3F3x       Tx   d 8 08 78 8C A0 B4 C8 DC F0
   4.000000 1 18EF49EFx       Tx   d 8 01 00 10 00 00 00 00 00
   4.000000 1 18FEF117x       Tx   d 8 00 00 00 00 00 00 00 00
   4.000000 1 18EBFFD7x       Tx   d 8 46 F4 10 00 00 00 00 00
   4.000000 1 18F00503x       Tx   d 8 00 00 00 7D 00 00 53 00
   4.000000 1 181000EFx       Tx   d 8 11 03 6E 00 00 00 10 27
   4.000000 1 181100EFx       Tx   d 8 00 00 6E 00 20 4E 20 4E
   4.250000 2 18FF90F3x       Tx   d 8 01 A8 00 00 00 00 00 00
   4.250000 2 18FF10F3x       Tx   d 8 00 00 00 00 00 00 88 13
   4.250000 2 18FF11F3x       Tx   d 8 00 00 80 A2 00 00 00 00
   4.250000 2 18FF14F3x       Tx   d 8 00 20 4E 00 00 0C 00 00
   4.250000 2 18FF91F3x       Tx   d 8 00 00 00 01 00 00 00 00
   4.250000 2 18FFB2F3x       Tx   d 8 1A E8 03 F4 81 BB 80 3E
   4.250000 2 18FFB3F3x       Tx   d 8 08 78 8C A0 B4 C8 DC F0
   4.250000 1 18EF49EFx       Tx   d 8 01 00 10 00 00 00 00 00
   4.250000 1 18FEF117x       Tx   d 8 00 00 00 00 00 00 00 00
   4.250000 1 18EBFFD7x       Tx   d 8 46 F4 10 00 00 00 00 00
   4.250000 1 18F00503x       Tx   d 8 00 00 00 7D 00 00 53 00
   4.250000 1 181000EFx       Tx   d 8 11 03 6E 00 00 00 10 27
   4.250000 1 181100EFx       Tx   d 8 00 00 6E 00 20 4E 20 4E
   4.500000 2 18FF90F3x       Tx   d 8 01 A8 00 00 00 00 00 00
   4.500000 2 18FF10F3x       Tx   d 8 00 00 00 00 00 00 88 13
   4.500000 2 18FF11F3x       Tx   d 8 00 00 80 A2 00 00 00 00
   4.500000 2 18FF14F3x       Tx   d 8 00 20 4E 00 00 0C 00 00
   4.500000 2 18FF91F3x       Tx   d 8 00 00 00 01 00 00 00 00
   4.500000 2 18FFB2F3x       Tx   d 8 1A E8 03 F4 81 BB 80 3E
   4.500000 2 18FFB3F3x       Tx   d 8 07 78 8C A0 B4 C8 DC F0
   4.500000 1 18EF49EFx       Tx   d 8 01 00 10 00 00 00 00 00
   4.500000 1 18FEF117x       Tx   d 8 00 00 00 00 00 00 00 00
   4.500000 1 18EBFFD7x       Tx   d 8 46 F4 10 00 00 00 00 00
   4.500000 1 18F00503x       Tx   d 8 00 00 00 7D 00 00 53 00
   4.500000 1 181000EFx       Tx   d 8 11 03 6E 00 00 00 10 27
   4.500000 1 181100EFx       Tx   d 8 00 00 6E 00 20 4E 20 4E
   4.750000 2 18FF90F3x       Tx   d 8 01 A8 00 00 00 00 00 00
   4.750000 2 18FF10F3x       Tx   d 8 00 00 00 00 00 00 88 13
   4.750000 2 18FF11F3x       Tx   d 8 00 00 80 A2 00 00 00 00
   4.750000 2 18FF14F3x       Tx   d 8 00 20 4E 00 00 0C 00 00
   4.750000 2 18FF91F3x       Tx   d 8 00 00 00 01 00 00 00 00
   4.750000 2 18FFB2F3x       Tx   d 8 19 E8 03 F4 81 BB 80 3E
   4.750000 2 18FFB3F3x       Tx   d 8 07 78 8C A0 B4 C8 DC F0
   4.750000 1 18EF49EFx       Tx   d 8 01 00 10 00 00 00 00 00
   4.750000 1 18FEF117x       Tx   d 8 00 00 00 00 00 00 00 00
   4.750000 1 18EBFFD7x       Tx   d 8 46 F4 10 00 00 00 00 00
   4.750000 1 18F00503x       Tx   d 8 00 00 00 7D 00 00 53 00
   4.750000 1 181000EFx       Tx   d 8 11 03 6E 00 00 00 10 27
   4.750000 1 181100EFx       Tx   d 8 00 00 6E 00 20 4E 20 4E
   5.000000 2 18FF90F3x       Tx   d 8 01 A8 00 00 00 00 00 00
   5.000000 2 18FF10F3x       Tx   d 8 00 00 00 00 00 00 88 13
   5.000000 2 18FF11F3x       Tx   d 8 00 00 80 A2 00 00 00 00
   5.000000 2 18FF14F3x       Tx   d 8 00 20 4E 00 00 0C 00 00
   5.000000 2 18FF91F3x       Tx   d 8 00 00 00 01 00 00 00 00
   5.000000 2 18FFB2F3x       Tx   d 8 18 E8 03 F4 81 BB 80 3E
   5.000000 2 18FFB3F3x       Tx   d 8 07 78 8C A0 B4 C8 DC F0
   5.000000 1 18EF49EFx       Tx   d 8 01 00 10 00 00 00 00 00
   5.000000 1 18FEF117x       Tx   d 8 00 00 00 00 00 00 00 00
   5.000000 1 18EBFFD7x       Tx   d 8 46 F4 10 00 00 00 00 00
   5.000000 1 18F00503x       Tx   d 8 00 00 00 7D 00 00 53 00
   5.000000 1 181000EFx       Tx   d 8 11 03 6E 00 00 00 10 27
   5.000000 1 181100EFx       Tx   d 8 00 00 6E 00 20 4E 20 4E
   5.250000 2 18FF90F3x       Tx   d 8 01 A8 00 00 00 00 00 00
   5.250000 2 18FF10F3x       Tx   d 8 00 00 00 00 00 00 88 13
   5.250000 2 18FF11F3x       Tx   d 8 00 00 80 A2 00 00 00 00
   5.250000 2 18FF14F3x       Tx   d 8 00 20 4E 00 00 0C 00 00
   5.250000 2 18FF91F3x       Tx   d 8 00 00 00 01 00 00 00 00
   5.250000 2 18FFB2F3x       Tx   d 8 18 E8 03 F4 81 BB 80 3E
   5.250000 2 18FFB3F3x       Tx   d 8 06 78 8C A0 B4 C8 DC F0
   5.250000 1 18EF49EFx       Tx   d 8 01 00 10 00 00 00 00 00
   5.250000 1 18FEF117x       Tx   d 8 00 00 00 00 00 00 00 00
   5.250000 1 18EBFFD7x       Tx   d 8 46 F4 10 00 00 00 00 00
   5.250000 1 18F00503x       Tx   d 8 00 00 00 7D 00 00 53 00
   5.250000 1 181000EFx       Tx   d 8 11 03 6E 00 00 00 10 27
   5.250000 1 181100EFx       Tx   d 8 00 00 6E 00 20 4E 20 4E
   5.500000 2 18FF90F3x       Tx   d 8 01 A8 00 00 00 00 00 00
   5.500000 2 18FF10F3x       Tx   d 8 00 00 00 00 00 00 88 13
   5.500000 2 18FF11F3x       Tx   d 8 00 00 80 A2 00 00 00 00
   5.500000 2 18FF14F3x       Tx   d 8 00 20 4E 00 00 0C 00 00
   5.500000 2 18FF91F3x       Tx   d 8 00 00 00 01 00 00 00 00
   5.500000 2 18FFB2F3x       Tx   d 8 17 E8 03 F4 81 BB 80 3E
   5.500000 2 18FFB3F3x       Tx   d 8 06 78 8C A0 B4 C8 DC F0
   5.500000 1 18EF49EFx       Tx   d 8 01 00 10 00 00 00 00 00
   5.500000 1 18FEF117x       Tx   d 8 00 00 00 00 00 00 00 00
   5.500000 1 18EBFFD7x       Tx   d 8 46 F4 10 00 00 00 00 00
   5.500000 1 18F00503x       Tx   d 8 00 00 00 7D 00 00 53 00
   5.500000 1 181000EFx       Tx   d 8 11 03 6E 00 00 00 10 27
   5.500000 1 181100EFx       Tx   d 8 00 00 6E 00 20 4E 20 4E
   5.750000 2 18FF90F3x       Tx   d 8 01 A8 00 00 00 00 00 00
   5.750000 2 18FF10F3x       Tx   d 8 00 00 00 00 00 00 88 13
   5.750000 2 18FF11F3x       Tx   d 8 00 00 80 A2 00 00 00 00
   5.750000 2 18FF14F3x       Tx   d 8 00 20 4E 00 00 0C 00 00
   5.750000 2 18FF91F3x       Tx   d 8 00 00 00 01 00 00 00 00
   5.750000 2 18FFB2F3x       Tx   d 8 17 E8 03 F4 81 BB 80 3E
   5.750000 2 18FFB3F3x       Tx   d 8 05 78 8C A0 B4 C8 DC F0
   5.750000 1 18EF49EFx       Tx   d 8 01 00 10 00 00 00 00 00
   5.750000 1 18FEF117x       Tx   d 8 00 00 00 00 00 00 00 00
   5.750000 1 18EBFFD7x       Tx   d 8 46 F4 10 00 00 00 00 00
   5.750000 1 18F00503x       Tx   d 8 00 00 00 7D 00 00 53 00
   5.750000 1 181000EFx       Tx   d 8 11 03 6E 00 00 00 10 27
   5.750000 1 181100EFx       Tx   d 8 00 00 6E 00 20 4E 20 4E
   6.000000 2 18FF90F3x       Tx   d 8 01 A8 00 00 00 00 00 00
   6.000000 2 18FF10F3x       Tx   d 8 00 00 00 00 00 00 88 13
   6.000000 2 18FF11F3x       Tx   d 8 00 00 80 A2 00 00 00 00
   6.000000 2 18FF14F3x       Tx   d 8 00 20 4E 00 00 0C 00 00
   6.000000 2 18FF91F3x       Tx   d 8 00 00 00 01 00 00 00 00
   6.000000 2 18FFB2F3x       Tx   d 8 16 E8 03 F4 81 BB 80 3E
   6.000000 2 18FFB3F3x       Tx   d 8 05 78 8C A0 B4 C8 DC F0
   6.000000 1 18EF49EFx       Tx   d 8 01 00 10 00 00 00 00 00
   6.000000 1 18FEF117x       Tx   d 8 00 00 00 00 00 00 00 00
   6.000000 1 18EBFFD7x       Tx   d 8 46 F4 10 00 00 00 00 00
   6.000000 1 18F00503x       Tx   d 8 00 00 00 7D 00 00 53 00
   6.000000 1 181000EFx       Tx   d 8 11 03 6E 00 00 00 10 27
   6.000000 1 181100EFx       Tx   d 8 00 00 6E 00 20 4E 20 4E
   6.250000 2 18FF90F3x       Tx   d 8 01 A8 00 00 00 00 00 00
   6.250000 2 18FF10F3x       Tx   d 8 00 00 00 00 00 00 88 13
   6.250000 2 18FF11F3x       Tx   d 8 00 00 80 A2 00 00 00 00
   6.250000 2 18FF14F3x       Tx   d 8 00 20 4E 00 00 0C 00 00
   6.250000 2 18FF91F3x       Tx   d 8 00 00 00 01 00 00 00 00
   6.250000 2 18FFB2F3x       Tx   d 8 15 E8 03 F4 81 BB 80 3E
   6.250000 2 18FFB3F3x       Tx   d 8 04 78 8C A0 B4 C8 DC F0
   6.250000 1 18EF49EFx       Tx   d 8 01 00 10 00 00 00 00 00
   6.250000 1 18FEF117x       Tx   d 8 00 00 00 00 00 00 00 00
   6.250000 1 18EBFFD7x       Tx   d 8 46 F4 10 00 00 00 00 00
   6.250000 1 18F00503x       Tx   d 8 00 00 00 7D 00 00 53 00
   6.250000 1 181000EFx       Tx   d 8 11 03 6E 00 00 00 10 27
   6.250000 1 181100EFx       Tx   d 8 00 00 6E 00 20 4E 20 4E
   6.500000 2 18FF90F3x       Tx   d 8 01 A8 00 00 00 00 00 00
   6.500000 2 18FF10F3x       Tx   d 8 00 00 00 00 00 00 88 13
   6.500000 2 18FF11F3x       Tx   d 8 00 00 80 A2 00 00 00 00
   6.500000 2 18FF14F3x       Tx   d 8 00 20 4E 00 00 0C 00 00
   6.500000 2 18FF91F3x       Tx   d 8 00 00 00 01 00 00 00 00
   6.500000 2 18FFB2F3x       Tx   d 8 15 E8 03 F4 81 BB 80 3E
   6.500000 2 18FFB3F3x       Tx   d 8 04 78 8C A0 B4 C8 DC F0
   6.500000 1 18EF49EFx       Tx   d 8 01 00 10 00 00 00 00 00
   6.500000 1 18FEF117x       Tx   d 8 00 00 00 00 00 00 00 00
   6.500000 1 18EBFFD7x       Tx   d 8 46 F4 10 00 00 00 00 00
   6.500000 1 18F00503x       Tx   d 8 00 00 00 7D 00 00 53 00
   6.500000 1 181000EFx       Tx   d 8 11 03 6E 00 00 00 10 27
   6.500000 1 181100EFx       Tx   d 8 00 00 6E 00 20 4E 20 4E
   6.750000 2 18FF90F3x       Tx   d 8 01 A8 00 00 00 00 00 00
   6.750000 2 18FF10F3x       Tx   d 8 00 00 00 00 00 00 88 13
   6.750000 2 18FF11F3x       Tx   d 8 00 00 80 A2 00 00 00 00
   6.750000 2 18FF14F3x       Tx   d 8 00 20 4E 00 00 0C 00 00
   6.750000 2 18FF91F3x       Tx   d 8 00 00 00 01 00 00 00 00
   6.750000 2 18FFB2F3x       Tx   d 8 14 E8 03 F4 81 BB 80 3E
   6.750000 2 18FFB3F3x       Tx   d 8 03 78 8C A0 B4 C8 DC F0
   6.750000 1 18EF49EFx       Tx   d 8 01 00 10 00 00 00 00 00
   6.750000 1 18FEF117x       Tx   d 8 00 00 00 00 00 00 00 00
   6.750000 1 18EBFFD7x       Tx   d 8 46 F4 10 00 00 00 00 00
   6.750000 1 18F00503x       Tx   d 8 00 00 00 7D 00 00 53 00
   6.750000 1 181000EFx       Tx   d 8 11 03 6E 00 00 00 10 27
   6.750000 1 181100EFx       Tx   d 8 00 00 6E 00 20 4E 20 4E
   7.000000 2 18FF90F3x       Tx   d 8 01 A8 00 00 00 00 00 00
   7.000000 2 18FF10F3x       Tx   d 8 00 00 00 00 00 00 88 13
   7.000000 2 18FF11F3x       Tx   d 8 00 00 80 A2 00 00 00 00
   7.000000 2 18FF14F3x       Tx   d 8 00 20 4E 00 00 0C 00 00
   7.000000 2 18FF91F3x       Tx   d 8 00 00 00 01 00 00 00 00
   7.000000 2 18FFB2F3x       Tx   d 8 14 E8 03 F4 81 BB 80 3E
   7.000000 2 18FFB3F3x       Tx   d 8 03 78 8C A0 B4 C8 DC F0
   7.000000 1 18EF49EFx       Tx   d 8 01 00 10 00 00 00 00 00
   7.000000 1 18FEF117x       Tx   d 8 00 00 00 00 00 00 00 00
   7.000000 1 18EBFFD7x       Tx   d 8 46 F4 10 00 00 00 00 00
   7.000000 1 18F00503x       Tx   d 8 00 00 00 7D 00 00 53 00
   7.000000 1 181000EFx       Tx   d 8 11 03 6E 00 00 00 10 27
   7.000000 1 181100EFx       Tx   d 8 00 00 6E 00 20 4E 20 4E
   7.250000 2 18FF90F3x       Tx   d 8 01 A8 00 00 00 00 00 00
   7.250000 2 18FF10F3x       Tx   d 8 00 00 00 00 00 00 88 13
   7.250000 2 18FF11F3x       Tx   d 8 00 00 80 A2 00 00 00 00
   7.250000 2 18FF14F3x       Tx   d 8 00 20 4E 00 00 0C 00 00
   7.250000 2 18FF91F3x       Tx   d 8 00 00 00 01 00 00 00 00
   7.250000 2 18FFB2F3x       Tx   d 8 13 E8 03 F4 81 BB 80 3E
   7.250000 2 18FFB3F3x       Tx   d 8 02 78 8C A0 B4 C8 DC F0
   7.250000 1 18EF49EFx       Tx   d 8 01 00 10 00 00 00 00 00
   7.250000 1 18FEF117x       Tx   d 8 00 00 00 00 00 00 00 00
   7.250000 1 18EBFFD7x       Tx   d 8 46 F4 10 00 00 00 00 00
   7.250000 1 18F00503x       Tx   d 8 00 00 00 7D 00 00 53 00
   7.250000 1 181000EFx       Tx   d 8 11 03 6E 00 00 00 10 27
   7.250000 1 181100EFx       Tx   d 8 00 00 6E 00 20 4E 20 4E
   7.500000 2 18FF90F3x       Tx   d 8 01 A8 00 00 00 00 00 00
   7.500000 2 18FF10F3x       Tx   d 8 00 00 00 00 00 00 88 13
   7.500000 2 18FF11F3x       Tx   d 8 00 00 80 A2 00 00 00 00
   7.500000 2 18FF14F3x       Tx   d 8 00 20 4E 00 00 0C 00 00
   7.500000 2 18FF91F3x       Tx   d 8 00 00 00 01 00 00 00 00
   7.500000 2 18FFB2F3x       Tx   d 8 12 E8 03 F4 81 BB 80 3E
   7.500000 2 18FFB3F3x       Tx   d 8 02 78 8C A0 B4 C8 DC F0
   7.500000 1 18EF49EFx       Tx   d 8 01 00 10 00 00 00 00 00
   7.500000 1 18FEF117x       Tx   d 8 00 00 00 00 00 00 00 00
   7.500000 1 18EBFFD7x       Tx   d 8 46 F4 10 00 00 00 00 00
   7.500000 1 18F00503x       Tx   d 8 00 00 00 7D 00 00 53 00
   7.500000 1 181000EFx       Tx   d 8 11 03 6E 00 00 00 10 27
   7.500000 1 181100EFx       Tx   d 8 00 00 6E 00 20 4E 20 4E
   7.750000 2 18FF90F3x       Tx   d 8 01 A8 00 00 00 00 00 00
   7.750000 2 18FF10F3x       Tx   d 8 00 00 00 00 00 00 88 13
   7.750000 2 18FF11F3x       Tx   d 8 00 00 80 A2 00 00 00 00
   7.750000 2 18FF14F3x       Tx   d 8 00 20 4E 00 00 0C 00 00
   7.750000 2 18FF91F3x       Tx   d 8 00 00 00 01 00 00 00 00
   7.750000 2 18FFB2F3x       Tx   d 8 12 E8 03 F4 81 BB 80 3E
   7.750000 2 18FFB3F3x       Tx   d 8 01 78 8C A0 B4 C8 DC F0
   7.750000 1 18EF49EFx       Tx   d 8 01 00 10 00 00 00 00 00
   7.750000 1 18FEF117x       Tx   d 8 00 00 00 00 00 00 00 00
   7.750000 1 18EBFFD7x       Tx   d 8 46 F4 10 00 00 00 00 00
   7.750000 1 18F00503x       Tx   d 8 00 00 00 7D 00 00 53 00
   7.750000 1 181000EFx       Tx   d 8 11 03 6E 00 00 00 10 27
   7.750000 1 181100EFx       Tx   d 8 00 00 6E 00 20 4E 20 4E
   8.000000 2 18FF90F3x       Tx   d 8 01 A8 00 00 00 00 00 00
   8.000000 2 18FF10F3x       Tx   d 8 00 00 00 00 00 00 88 13
   8.000000 2 18FF11F3x       Tx   d 8 00 00 80 A2 00 00 00 00
   8.000000 2 18FF14F3x       Tx   d 8 00 20 4E 00 00 0C 00 00
   8.000000 2 18FF91F3x       Tx   d 8 00 00 00 01 00 00 00 00
   8.000000 2 18FFB2F3x       Tx   d 8 11 E8 03 F4 81 BB 80 3E
   8.000000 2 18FFB3F3x       Tx   d 8 01 78 8C A0 B4 C8 DC F0
   8.000000 1 18EF49EFx       Tx   d 8 01 00 10 00 00 00 00 00
   8.000000 1 18FEF117x       Tx   d 8 00 00 00 00 00 00 00 00
   8.000000 1 18EBFFD7x       Tx   d 8 46 F4 10 00 00 00 00 00
   8.000000 1 18F00503x       Tx   d 8 00 00 00 7D 00 00 53 00
   8.000000 1 181000EFx       Tx   d 8 11 03 6E 00 00 00 10 27
   8.000000 1 181100EFx       Tx   d 8 00 00 6E 00 20 4E 20 4E
   8.250000 2 18FF90F3x       Tx   d 8 01 A8 00 00 00 00 00 00
   8.250000 2 18FF10F3x       Tx   d 8 00 00 00 00 00 00 88 13
   8.250000 2 18FF11F3x       Tx   d 8 00 00 80 A2 00 00 00 00
   8.250000 2 18FF14F3x       Tx   d 8 00 20 4E 00 00 0C 00 00
   8.250000 2 18FF91F3x       Tx   d 8 00 00 00 01 00 00 00 00
   8.250000 2 18FFB2F3x       Tx   d 8 10 E8 03 F4 81 BB 80 3E
   8.250000 2 18FFB3F3x       Tx   d 8 01 78 8C A0 B4 C8 DC F0
   8.250000 1 18EF49EFx       Tx   d 8 01 00 10 00 00 00 00 00
   8.250000 1 18FEF117x       Tx   d 8 00 00 00 00 00 00 00 00
   8.250000 1 18EBFFD7x       Tx   d 8 46 F4 10 00 00 00 00 00
   8.250000 1 18F00503x       Tx   d 8 00 00 00 7D 00 00 53 00
   8.250000 1 181000EFx       Tx   d 8 11 03 6E 00 00 00 10 27
   8.250000 1 181100EFx       Tx   d 8 00 00 6E 00 20 4E 20 4E
   8.500000 2 18FF90F3x       Tx   d 8 01 A8 00 00 00 00 00 00
   8.500000 2 18FF10F3x       Tx   d 8 00 00 00 00 00 00 88 13
   8.500000 2 18FF11F3x       Tx   d 8 00 00 80 A2 00 00 00 00
   8.500000 2 18FF14F3x       Tx   d 8 00 20 4E 00 00 0C 00 00
   8.500000 2 18FF91F3x       Tx   d 8 00 00 00 01 00 00 00 00
   8.500000 2 18FFB2F3x       Tx   d 8 10 E8 03 F4 81 BB 80 3E
   8.500000 2 18FFB3F3x       Tx   d 8 01 78 8C A0 B4 C8 DC F0
   8.500000 1 18EF49EFx       Tx   d 8 01 02 10 00 00 00 00 00
   8.500000 1 18FEF117x       Tx   d 8 00 00 00 00 00 00 00 00
   8.500000 1 18EBFFD7x       Tx   d 8 46 F4 10 00 00 00 00 00
   8.500000 1 18F00503x       Tx   d 8 00 00 00 7D 00 00 53 00
   8.500000 1 181000EFx       Tx   d 8 11 03 6E 00 00 00 10 27
   8.500000 1 181100EFx       Tx   d 8 00 00 6E 00 20 4E 20 4E
   8.750000 2 18FF90F3x       Tx   d 8 01 A8 00 00 00 00 00 00
   8.750000 2 18FF10F3x       Tx   d 8 00 00 00 00 00 00 88 13
   8.750000 2 18FF11F3x       Tx   d 8 00 00 80 A2 00 00 00 00
   8.750000 2 18FF14F3x       Tx   d 8 00 20 4E 00 00 0C 00 00
   8.750000 2 18FF91F3x       Tx   d 8 00 00 00 01 00 00 00 00
   8.750000 2 18FFB2F3x       Tx   d 8 0F E8 03 F4 81 BB 80 3E
   8.750000 2 18FFB3F3x       Tx   d 8 02 78 8C A0 B4 C8 DC F0
   8.750000 1 18EF49EFx       Tx   d 8 01 02 10 00 00 00 00 00
   8.750000 1 18FEF117x       Tx   d 8 00 00 00 00 00 00 00 00
   8.750000 1 18EBFFD7x       Tx   d 8 46 F4 10 00 00 00 00 00
   8.750000 1 18F00503x       Tx   d 8 00 00 00 7D 00 00 53 00
   8.750000 1 181000EFx       Tx   d 8 11 03 6E 00 00 00 10 27
   8.750000 1 181100EFx       Tx   d 8 00 00 6E 00 20 4E 20 4E
   9.000000 2 18FF90F3x       Tx   d 8 01 A8 00 00 00 00 00 00
   9.000000 2 18FF10F3x       Tx   d 8 00 00 00 00 00 00 88 13
   9.000000 2 18FF11F3x       Tx   d 8 00 00 80 A2 00 00 00 00
   9.000000 2 18FF14F3x       Tx   d 8 00 20 4E 00 00 0C 00 00
   9.000000 2 18FF91F3x       Tx   d 8 00 00 00 01 00 00 00 00
   9.000000 2 18FFB2F3x       Tx   d 8 0F E8 03 F4 81 BB 80 3E
   9.000000 2 18FFB3F3x       Tx   d 8 02 78 8C A0 B4 C8 DC F0
   9.000000 1 18EF49EFx       Tx   d 8 01 02 10 00 00 00 00 00
   9.000000 1 18FEF117x       Tx   d 8 00 00 00 00 00 00 00 00
   9.000000 1 18EBFFD7x       Tx   d 8 46 F4 10 00 00 00 00 00
   9.000000 1 18F00503x       Tx   d 8 00 00 00 7D 00 00 53 00
   9.000000 1 181000EFx       Tx   d 8 11 03 6E 00 00 00 10 27
   9.000000 1 181100EFx       Tx   d 8 00 00 6E 00 20 4E 20 4E
   9.250000 2 18FF90F3x       Tx   d 8 01 A8 00 00 00 00 00 00
   9.250000 2 18FF10F3x       Tx   d 8 00 00 00 00 00 00 88 13
   9.250000 2 18FF11F3x       Tx   d 8 00 00 80 A2 00 00 00 00
   9.250000 2 18FF14F3x       Tx   d 8 00 20 4E 00 00 0C 00 00
   9.250000 2 18FF91F3x       Tx   d 8 00 00 00 01 00 00 00 00
   9.250000 2 18FFB2F3x       Tx   d 8 0E E8 03 F4 81 BB 80 3E
   9.250000 2 18FFB3F3x       Tx   d 8 03 78 8C A0 B4 C8 DC F0
   9.250000 1 18EF49EFx       Tx   d 8 01 02 10 00 00 00 00 00
   9.250000 1 18FEF117x       Tx   d 8 00 00 00 00 00 00 00 00
   9.250000 1 18EBFFD7x       Tx   d 8 46 F4 10 00 00 00 00 00
   9.250000 1 18F00503x       Tx   d 8 00 00 00 7D 00 00 53 00
   9.250000 1 181000EFx       Tx   d 8 11 03 6E 00 00 00 10 27
   9.250000 1 181100EFx       Tx   d 8 00 00 6E 00 20 4E 20 4E
   9.500000 2 18FF90F3x       Tx   d 8 01 A8 00 00 00 00 00 00
   9.500000 2 18FF10F3x       Tx   d 8 00 00 00 00 00 00 88 13
   9.500000 2 18FF11F3x       Tx   d 8 00 00 80 A2 00 00 00 00
   9.500000 2 18FF14F3x       Tx   d 8 00 B0 4F 00 00 0C 00 00
   9.500000 2 18FF91F3x       Tx   d 8 00 00 00 01 00 00 00 00
   9.500000 2 18FFB2F3x       Tx   d 8 0D E8 03 F4 81 BB 80 3E
   9.500000 2 18FFB3F3x       Tx   d 8 03 78 8C A0 B4 C8 DC F0
   9.500000 1 18EF49EFx       Tx   d 8 01 02 10 00 00 00 00 00
   9.500000 1 18FEF117x       Tx   d 8 00 00 00 00 00 00 00 00
   9.500000 1 18EBFFD7x       Tx   d 8 46 F4 10 00 00 00 00 00
   9.500000 1 18F00503x       Tx   d 8 00 00 00 7D 00 00 53 00
   9.500000 1 181000EFx       Tx   d 8 11 03 6E 00 00 00 10 27
   9.500000 1 181100EFx       Tx   d 8 00 00 6E 00 20 4E 20 4E
   9.750000 2 18FF90F3x       Tx   d 8 01 A8 00 00 00 00 00 00
   9.750000 2 18FF10F3x       Tx   d 8 00 00 00 00 00 00 88 13
   9.750000 2 18FF11F3x       Tx   d 8 00 00 80 A2 00 00 00 00
   9.750000 2 18FF14F3x       Tx   d 8 00 B0 4F 00 00 0C 00 00
   9.750000 2 18FF91F3x       Tx   d 8 00 00 00 01 00 00 00 00
   9.750000 2 18FFB2F3x       Tx   d 8 0D E8 03 F4 81 BB 80 3E
   9.750000 2 18FFB3F3x       Tx   d 8 04 78 8C A0 B4 C8 DC F0
   9.750000 1 18EF49EFx       Tx   d 8 01 02 10 00 00 00 00 00
   9.750000 1 18FEF117x       Tx   d 8 00 00 00 00 00 00 00 00
   9.750000 1 18EBFFD7x       Tx   d 8 46 F4 10 00 00 00 00 00
   9.750000 1 18F00503x       Tx   d 8 00 00 00 7D 00 00 53 00
   9.750000 1 181000EFx       Tx   d 8 11 03 6E 00 00 00 10 27
   9.750000 1 181100EFx       Tx   d 8 00 00 6E 00 20 4E 20 4E
  10.000000 2 18FF90F3x       Tx   d 8 01 A8 00 00 00 00 00 00
  10.000000 2 18FF10F3x       Tx   d 8 00 00 00 00 00 00 88 13
  10.000000 2 18FF11F3x       Tx   d 8 00 00 80 A2 00 00 00 00
  10.000000 2 18FF14F3x       Tx   d 8 00 B0 4F 00 00 0C 00 00
  10.000000 2 18FF91F3x       Tx   d 8 00 00 00 01 00 00 00 00
  10.000000 2 18FFB2F3x       Tx   d 8 0C E8 03 F4 81 BB 80 3E
  10.000000 2 18FFB3F3x       Tx   d 8 04 78 8C A0 B4 C8 DC F0
  10.000000 1 18EF49EFx       Tx   d 8 01 02 10 00 00 00 00 00
  10.000000 1 18FEF117x       Tx   d 8 00 00 00 00 00 00 00 00
  10.000000 1 18EBFFD7x       Tx   d 8 46 F4 10 00 00 00 00 00
  10.000000 1 18F00503x       Tx   d 8 00 00 00 7D 00 00 53 00
  10.000000 1 181000EFx       Tx   d 8 11 03 6E 00 00 00 10 27
  10.000000 1 181100EFx       Tx   d 8 00 00 6E 00 20 4E 20 4E
  10.250000 2 18FF90F3x       Tx   d 8 01 A8 00 00 00 00 00 00
  10.250000 2 18FF10F3x       Tx   d 8 00 00 00 00 00 00 88 13
  10.250000 2 18FF11F3x       Tx   d 8 00 00 80 A2 00 00 00 00
  10.250000 2 18FF14F3x       Tx   d 8 00 B0 4F 00 00 0C 00 00
  10.250000 2 18FF91F3x       Tx   d 8 00 00 00 01 00 00 00 00
  10.250000 2 18FFB2F3x       Tx   d 8 0C E8 03 F4 81 BB 80 3E
  10.250000 2 18FFB3F3x       Tx   d 8 04 78 8C A0 B4 C8 DC F0
  10.250000 1 18EF49EFx       Tx   d 8 01 02 10 00 00 00 00 00
  10.250000 1 18FEF117x       Tx   d 8 00 00 00 00 00 00 00 00
  10.250000 1 18EBFFD7x       Tx   d 8 46 F4 10 00 00 00 00 00
  10.250000 1 18F00503x       Tx   d 8 00 00 00 7D 00 00 53 00
  10.250000 1 181000EFx       Tx   d 8 11 03 6E 00 00 00 10 27
  10.250000 1 181100EFx       Tx   d 8 00 00 6E 00 20 4E 20 4E
  10.500000 2 18FF90F3x       Tx   d 8 01 A8 00 00 00 00 00 00
  10.500000 2 18FF10F3x       Tx   d 8 00 00 00 00 00 00 88 13
  10.500000 2 18FF11F3x       Tx   d 8 00 00 80 A2 00 00 00 00
  10.500000 2 18FF14F3x       Tx   d 8 00 40 51 00 00 0C 00 00
  10.500000 2 18FF91F3x       Tx   d 8 00 00 00 01 00 00 00 00
  10.500000 2 18FFB2F3x       Tx   d 8 0B E8 03 F4 81 BB 80 3E
  10.500000 2 18FFB3F3x       Tx   d 8 05 78 8C A0 B4 C8 DC F0
  10.500000 1 18EF49EFx       Tx   d 8 01 02 10 00 00 00 00 00
  10.500000 1 18FEF117x       Tx   d 8 00 00 00 00 00 00 00 00
  10.500000 1 18EBFFD7x       Tx   d 8 46 F4 10 00 00 00 00 00
  10.500000 1 18F00503x       Tx   d 8 00 00 00 7D 00 00 53 00
  10.500000 1 181000EFx       Tx   d 8 11 03 6E 00 00 00 10 27
  10.500000 1 181100EFx       Tx   d 8 00 00 6E 00 20 4E 20 4E
  10.750000 2 18FF90F3x       Tx   d 8 01 A8 00 00 00 00 00 00
  10.750000 2 18FF10F3x       Tx   d 8 00 00 00 00 00 00 88 13
  10.750000 2 18FF11F3x       Tx   d 8 00 00 80 A2 00 00 00 00
  10.750000 2 18FF14F3x       Tx   d 8 00 40 51 00 00 0C 00 00
  10.750000 2 18FF91F3x       Tx   d 8 00 00 00 01 00 00 00 00
  10.750000 2 18FFB2F3x       Tx   d 8 0A E8 03 F4 81 BB 80 3E
  10.750000 2 18FFB3F3x       Tx   d 8 05 78 8C A0 B4 C8 DC F0
  10.750000 1 18EF49EFx       Tx   d 8 01 02 10 00 00 00 00 00
  10.750000 1 18FEF117x       Tx   d 8 00 00 00 00 00 00 00 00
  10.750000 1 18EBFFD7x       Tx   d 8 46 F4 10 00 00 00 00 00
  10.750000 1 18F00503x       Tx   d 8 00 00 00 7D 00 00 53 00
  10.750000 1 181000EFx       Tx   d 8 11 03 6E 00 00 00 10 27
  10.750000 1 181100EFx       Tx   d 8 00 00 6E 00 20 4E 20 4E
  11.000000 2 18FF90F3x       Tx   d 8 01 A8 00 00 00 00 00 00
  11.000000 2 18FF10F3x       Tx   d 8 00 00 00 00 00 00 88 13
  11.000000 2 18FF11F3x       Tx   d 8 00 00 80 A2 00 00 00 00
  11.000000 2 18FF14F3x       Tx   d 8 00 40 51 00 00 0C 00 00
  11.000000 2 18FF91F3x       Tx   d 8 00 00 00 01 00 00 00 00
  11.000000 2 18FFB2F3x       Tx   d 8 0A E8 03 F4 81 BB 80 3E
  11.000000 2 18FFB3F3x       Tx   d 8 06 78 8C A0 B4 C8 DC F0
  11.000000 1 18EF49EFx       Tx   d 8 01 02 10 00 00 00 00 00
  11.000000 1 18FEF117x       Tx   d 8 00 00 00 00 00 00 00 00
  11.000000 1 18EBFFD7x       Tx   d 8 46 F4 10 00 00 00 00 00
  11.000000 1 18F00503x       Tx   d 8 00 00 00 7D 00 00 53 00
  11.000000 1 181000EFx       Tx   d 8 11 03 6E 00 00 00 10 27
  11.000000 1 181100EFx       Tx   d 8 00 00 6E 00 20 4E 20 4E
  11.250000 2 18FF90F3x       Tx   d 8 01 A8 00 00 00 00 00 00
  11.250000 2 18FF10F3x       Tx   d 8 00 00 00 00 00 00 88 13
  11.250000 2 18FF11F3x       Tx   d 8 00 00 80 A2 00 00 00 00
  11.250000 2 18FF14F3x       Tx   d 8 00 40 51 00 00 0C 00 00
  11.250000 2 18FF91F3x       Tx   d 8 00 00 00 01 00 00 00 00
  11.250000 2 18FFB2F3x       Tx   d 8 09 E8 03 F4 81 BB 80 3E
  11.250000 2 18FFB3F3x       Tx   d 8 06 78 8C A0 B4 C8 DC F0
  11.250000 1 18EF49EFx       Tx   d 8 01 02 10 00 00 00 00 00
  11.250000 1 18FEF117x       Tx   d 8 00 00 00 00 00 00 00 00
  11.250000 1 18EBFFD7x       Tx   d 8 46 F4 10 00 00 00 00 00
  11.250000 1 18F00503x       Tx   d 8 00 00 00 7D 00 00 53 00
  11.250000 1 181000EFx       Tx   d 8 11 03 6E 00 00 00 10 27
  11.250000 1 181100EFx       Tx   d 8 00 00 6E 00 20 4E 20 4E
  11.500000 2 18FF90F3x       Tx   d 8 01 A8 00 00 00 00 00 00
  11.500000 2 18FF10F3x       Tx   d 8 00 00 00 00 00 00 88 13
  11.500000 2 18FF11F3x       Tx   d 8 00 00 80 A2 00 00 00 00
  11.500000 2 18FF14F3x       Tx   d 8 00 D0 52 00 00 0C 00 00
  11.500000 2 18FF91F3x       Tx   d 8 00 00 00 01 00 00 00 00
  11.500000 2 18FFB2F3x       Tx   d 8 09 E8 03 F4 81 BB 80 3E
  11.500000 2 18FFB3F3x       Tx   d 8 07 78 8C A0 B4 C8 DC F0
  11.500000 1 18EF49EFx       Tx   d 8 01 02 10 00 00 00 00 00
  11.500000 1 18FEF117x       Tx   d 8 00 00 00 00 00 00 00 00
  11.500000 1 18EBFFD7x       Tx   d 8 46 F4 10 00 00 00 00 00
  11.500000 1 18F00503x       Tx   d 8 00 00 00 7D 00 00 53 00
  11.500000 1 181000EFx       Tx   d 8 11 03 6E 00 00 00 10 27
  11.500000 1 181100EFx       Tx   d 8 00 00 6E 00 20 4E 20 4E
  11.750000 2 18FF90F3x       Tx   d 8 01 A8 00 00 00 00 00 00
  11.750000 2 18FF10F3x       Tx   d 8 00 00 00 00 00 00 88 13
  11.750000 2 18FF11F3x       Tx   d 8 00 00 80 A2 00 00 00 00
  11.750000 2 18FF14F3x       Tx   d 8 00 D0 52 00 00 0C 00 00
  11.750000 2 18FF91F3x       Tx   d 8 00 00 00 01 00 00 00 00
  11.750000 2 18FFB2F3x       Tx   d 8 08 E8 03 F4 81 BB 80 3E
  11.750000 2 18FFB3F3x       Tx   d 8 07 78 8C A0 B4 C8 DC F0
  11.750000 1 18EF49EFx       Tx   d 8 01 02 10 00 00 00 00 00
  11.750000 1 18FEF117x       Tx   d 8 00 00 00 00 00 00 00 00
  11.750000 1 18EBFFD7x       Tx   d 8 46 F4 10 00 00 00 00 00
  11.750000 1 18F00503x       Tx   d 8 00 00 00 7D 00 00 53 00
  11.750000 1 181000EFx       Tx   d 8 11 03 6E 00 00 00 10 27
  11.750000 1 181100EFx       Tx   d 8 00 00 6E 00 20 4E 20 4E
  12.000000 2 18FF90F3x       Tx   d 8 01 A8 00 00 00 00 00 00
  12.000000 2 18FF10F3x       Tx   d 8 00 00 00 00 00 00 88 13
  12.000000 2 18FF11F3x       Tx   d 8 00 00 80 A2 00 00 00 00
  12.000000 2 18FF14F3x       Tx   d 8 00 D0 52 00 00 0C 00 00
  12.000000 2 18FF91F3x       Tx   d 8 00 00 00 01 00 00 00 00
  12.000000 2 18FFB2F3x       Tx   d 8 07 E8 03 F4 81 BB 80 3E
  12.000000 2 18FFB3F3x       Tx   d 8 08 78 8C A0 B4 C8 DC F0
  12.000000 1 18EF49EFx       Tx   d 8 01 02 10 00 00 00 00 00
  12.000000 1 18FEF117x       Tx   d 8 00 00 00 00 00 00 00 00
  12.000000 1 18EBFFD7x       Tx   d 8 46 F4 10 00 00 00 00 00
  12.000000 1 18F00503x       Tx   d 8 00 00 00 7D 00 00 53 00
  12.000000 1 181000EFx       Tx   d 8 11 03 6E 00 00 00 10 27
  12.000000 1 181100EFx       Tx   d 8 00 00 6E 00 20 4E 20 4E
  12.250000 2 18FF90F3x       Tx   d 8 01 A8 00 00 00 00 00 00
  12.250000 2 18FF10F3x       Tx   d 8 00 00 00 00 00 00 88 13
  12.250000 2 18FF11F3x       Tx   d 8 00 00 80 A2 00 00 00 00
  12.250000 2 18FF14F3x       Tx   d 8 00 D0 52 00 00 0C 00 00
  12.250000 2 18FF91F3x       Tx   d 8 00 00 00 01 00 00 00 00
  12.250000 2 18FFB2F3x       Tx   d 8 07 E8 03 F4 81 BB 80 3E
  12.250000 2 18FFB3F3x       Tx   d 8 08 78 8C A0 B4 C8 DC F0
  12.250000 1 18EF49EFx       Tx   d 8 01 02 10 00 00 00 00 00
  12.250000 1 18FEF117x       Tx   d 8 00 00 00 00 00 00 00 00
  12.250000 1 18EBFFD7x       Tx   d 8 46 F4 10 00 00 00 00 00
  12.250000 1 18F00503x       Tx   d 8 00 00 00 7D 00 00 53 00
  12.250000 1 181000EFx       Tx   d 8 11 03 6E 00 00 00 10 27
  12.250000 1 181100EFx       Tx   d 8 00 00 6E 00 20 4E 20 4E
  12.500000 2 18FF90F3x       Tx   d 8 01 A8 00 00 00 00 00 00
  12.500000 2 18FF10F3x       Tx   d 8 00 00 00 00 00 00 88 13
  12.500000 2 18FF11F3x       Tx   d 8 00 00 80 A2 00 00 00 00
  12.500000 2 18FF14F3x       Tx   d 8 00 60 54 00 00 0C 00 00
  12.500000 2 18FF91F3x       Tx   d 8 00 00 00 01 00 00 00 00
  12.500000 2 18FFB2F3x       Tx   d 8 06 E8 03 F4 81 BB 80 3E
  12.500000 2 18FFB3F3x       Tx   d 8 09 78 8C A0 B4 C8 DC F0
  12.500000 1 18EF49EFx       Tx   d 8 01 02 10 00 00 00 00 00
  12.500000 1 18FEF117x       Tx   d 8 00 00 00 00 00 00 00 00
  12.500000 1 18EBFFD7x       Tx   d 8 46 F4 10 00 00 00 00 00
  12.500000 1 18F00503x       Tx   d 8 00 00 00 7D 00 00 53 00
  12.500000 1 181000EFx       Tx   d 8 11 03 6E 00 00 00 10 27
  12.500000 1 181100EFx       Tx   d 8 00 00 6E 00 20 4E 20 4E
  12.750000 2 18FF90F3x       Tx   d 8 01 A8 00 00 00 00 00 00
  12.750000 2 18FF10F3x       Tx   d 8 00 00 00 00 00 00 88 13
  12.750000 2 18FF11F3x       Tx   d 8 00 00 80 A2 00 00 00 00
  12.750000 2 18FF14F3x       Tx   d 8 00 60 54 00 00 0C 00 00
  12.750000 2 18FF91F3x       Tx   d 8 00 00 00 01 00 00 00 00
  12.750000 2 18FFB2F3x       Tx   d 8 06 E8 03 F4 81 BB 80 3E
  12.750000 2 18FFB3F3x       Tx   d 8 09 78 8C A0 B4 C8 DC F0
  12.750000 1 18EF49EFx       Tx   d 8 01 02 10 00 00 00 00 00
  12.750000 1 18FEF117x       Tx   d 8 00 00 00 00 00 00 00 00
  12.750000 1 18EBFFD7x       Tx   d 8 46 F4 10 00 00 00 00 00
  12.750000 1 18F00503x       Tx   d 8 00 00 00 7D 00 00 53 00
  12.750000 1 181000EFx       Tx   d 8 11 03 6E 00 00 00 10 27
  12.750000 1 181100EFx       Tx   d 8 00 00 6E 00 20 4E 20 4E
  13.000000 2 18FF90F3x       Tx   d 8 01 A8 00 00 00 00 00 00
  13.000000 2 18FF10F3x       Tx   d 8 00 00 00 00 00 00 88 13
  13.000000 2 18FF11F3x       Tx   d 8 00 00 80 A2 00 00 00 00
  13.000000 2 18FF14F3x       Tx   d 8 00 60 54 00 00 0C 00 00
  13.000000 2 18FF91F3x       Tx   d 8 00 00 00 01 00 00 00 00
  13.000000 2 18FFB2F3x       Tx   d 8 05 E8 03 F4 81 BB 80 3E
  13.000000 2 18FFB3F3x       Tx   d 8 0A 78 8C A0 B4 C8 DC F0
  13.000000 1 18EF49EFx       Tx   d 8 01 02 10 00 00 00 00 00
  13.000000 1 18FEF117x       Tx   d 8 00 00 00 00 00 00 00 00
  13.000000 1 18EBFFD7x       Tx   d 8 46 F4 10 00 00 00 00 00
  13.000000 1 18F00503x       Tx   d 8 00 00 00 7D 00 00 53 00
  13.000000 1 181000EFx       Tx   d 8 11 03 6E 00 00 00 10 27
  13.000000 1 181100EFx       Tx   d 8 00 00 6E 00 20 4E 20 4E
  13.250000 2 18FF90F3x       Tx   d 8 01 A8 00 00 00 00 00 00
  13.250000 2 18FF10F3x       Tx   d 8 00 00 00 00 00 00 88 13
  13.250000 2 18FF11F3x       Tx   d 8 00 00 80 A2 00 00 00 00
  13.250000 2 18FF14F3x       Tx   d 8 00 60 54 00 00 0C 00 00
  13.250000 2 18FF91F3x       Tx   d 8 00 00 00 01 00 00 00 00
  13.250000 2 18FFB2F3x       Tx   d 8 04 E8 03 F4 81 BB 80 3E
  13.250000 2 18FFB3F3x       Tx   d 8 0A 78 8C A0 B4 C8 DC F0
  13.250000 1 18EF49EFx       Tx   d 8 01 02 10 00 00 00 00 00
  13.250000 1 18FEF117x       Tx   d 8 00 00 00 00 00 00 00 00
  13.250000 1 18EBFFD7x       Tx   d 8 46 F4 10 00 00 00 00 00
  13.250000 1 18F00503x       Tx   d 8 00 00 00 7D 00 00 53 00
  13.250000 1 181000EFx       Tx   d 8 11 03 6E 00 00 00 10 27
  13.250000 1 181100EFx       Tx   d 8 00 00 6E 00 20 4E 20 4E
  13.500000 2 18FF90F3x       Tx   d 8 01 A8 00 00 00 00 00 00
  13.500000 2 18FF10F3x       Tx   d 8 00 00 00 00 00 00 88 13
  13.500000 2 18FF11F3x       Tx   d 8 00 00 80 A2 00 00 00 00
  13.500000 2 18FF14F3x       Tx   d 8 00 F0 55 00 00 0C 00 00
  13.500000 2 18FF91F3x       Tx   d 8 00 00 00 01 00 00 00 00
  13.500000 2 18FFB2F3x       Tx   d 8 04 E8 03 F4 81 BB 80 3E
  13.500000 2 18FFB3F3x       Tx   d 8 09 78 8C A0 B4 C8 DC F0
  13.500000 1 18EF49EFx       Tx   d 8 01 02 10 00 00 00 00 00
  13.500000 1 18FEF117x       Tx   d 8 00 00 00 00 00 00 00 00
  13.500000 1 18EBFFD7x       Tx   d 8 46 F4 10 00 00 00 00 00
  13.500000 1 18F00503x       Tx   d 8 00 00 00 7D 00 00 53 00
  13.500000 1 181000EFx       Tx   d 8 11 03 6E 00 00 00 10 27
  13.500000 1 181100EFx       Tx   d 8 00 00 6E 00 20 4E 20 4E
  13.750000 2 18FF90F3x       Tx   d 8 01 A8 00 00 00 00 00 00
  13.750000 2 18FF10F3x       Tx   d 8 00 00 00 00 00 00 88 13
  13.750000 2 18FF11F3x       Tx   d 8 00 00 80 A2 00 00 00 00
  13.750000 2 18FF14F3x       Tx   d 8 00 F0 55 00 00 0C 00 00
  13.750000 2 18FF91F3x       Tx   d 8 00 00 00 01 00 00 00 00
  13.750000 2 18FFB2F3x       Tx   d 8 03 E8 03 F4 81 BB 80 3E
  13.750000 2 18FFB3F3x       Tx   d 8 09 78 8C A0 B4 C8 DC F0
  13.750000 1 18EF49EFx       Tx   d 8 01 02 10 00 00 00 00 00
  13.750000 1 18FEF117x       Tx   d 8 00 00 00 00 00 00 00 00
  13.750000 1 18EBFFD7x       Tx   d 8 46 F4 10 00 00 00 00 00
  13.750000 1 18F00503x       Tx   d 8 00 00 00 7D 00 00 53 00
  13.750000 1 181000EFx       Tx   d 8 11 03 6E 00 00 00 10 27
  13.750000 1 181100EFx       Tx   d 8 00 00 6E 00 20 4E 20 4E
  14.000000 2 18FF90F3x       Tx   d 8 01 A8 00 00 00 00 00 00
  14.000000 2 18FF10F3x       Tx   d 8 00 00 00 00 00 00 88 13
  14.000000 2 18FF11F3x       Tx   d 8 00 00 80 A2 00 00 00 00
  14.000000 2 18FF14F3x       Tx   d 8 00 F0 55 00 00 0C 00 00
  14.000000 2 18FF91F3x       Tx   d 8 00 00 00 01 00 00 00 00
  14.000000 2 18FFB2F3x       Tx   d 8 03 E8 03 F4 81 BB 80 3E
  14.000000 2 18FFB3F3x       Tx   d 8 08 78 8C A0 B4 C8 DC F0
  14.000000 1 18EF49EFx       Tx   d 8 01 02 10 00 00 00 00 00
  14.000000 1 18FEF117x       Tx   d 8 00 00 00 00 00 00 00 00
  14.000000 1 18EBFFD7x       Tx   d 8 46 F4 10 00 00 00 00 00
  14.000000 1 18F00503x       Tx   d 8 00 00 00 7D 00 00 53 00
  14.000000 1 181000EFx       Tx   d 8 11 03 6E 00 00 00 10 27
  14.000000 1 181100EFx       Tx   d 8 00 00 6E 00 20 4E 20 4E
  14.250000 2 18FF90F3x       Tx   d 8 01 A8 00 00 00 00 00 00
  14.250000 2 18FF10F3x       Tx   d 8 00 00 00 00 00 00 88 13
  14.250000 2 18FF11F3x       Tx   d 8 00 00 80 A2 00 00 00 00
  14.250000 2 18FF14F3x       Tx   d 8 00 F0 55 00 00 0C 00 00
  14.250000 2 18FF91F3x       Tx   d 8 00 00 00 01 00 00 00 00
  14.250000 2 18FFB2F3x       Tx   d 8 02 E8 03 F4 81 BB 80 3E
  14.250000 2 18FFB3F3x       Tx   d 8 08 78 8C A0 B4 C8 DC F0
  14.250000 1 18EF49EFx       Tx   d 8 01 02 10 00 00 00 00 00
  14.250000 1 18FEF117x       Tx   d 8 00 00 00 00 00 00 00 00
  14.250000 1 18EBFFD7x       Tx   d 8 46 F4 10 00 00 00 00 00
  14.250000 1 18F00503x       Tx   d 8 00 00 00 7D 00 00 53 00
  14.250000 1 181000EFx       Tx   d 8 11 03 6E 00 00 00 10 27
  14.250000 1 181100EFx       Tx   d 8 00 00 6E 00 20 4E 20 4E
  14.500000 2 18FF90F3x       Tx   d 8 01 A8 00 00 00 00 00 00
  14.500000 2 18FF10F3x       Tx   d 8 00 00 00 00 00 00 88 13
  14.500000 2 18FF11F3x       Tx   d 8 00 00 80 A2 00 00 00 00
  14.500000 2 18FF14F3x       Tx   d 8 00 80 57 00 00 0C 00 00
  14.500000 2 18FF91F3x       Tx   d 8 00 00 00 01 00 00 00 00
  14.500000 2 18FFB2F3x       Tx   d 8 01 E8 03 F4 81 BB 80 3E
  14.500000 2 18FFB3F3x       Tx   d 8 07 78 8C A0 B4 C8 DC F0
  14.500000 1 18EF49EFx       Tx   d 8 01 02 10 00 00 00 00 00
  14.500000 1 18FEF117x       Tx   d 8 00 00 00 00 00 00 00 00
  14.500000 1 18EBFFD7x       Tx   d 8 46 F4 10 00 00 00 00 00
  14.500000 1 18F00503x       Tx   d 8 00 00 00 7D 00 00 53 00
  14.500000 1 181000EFx       Tx   d 8 11 03 6E 00 00 00 10 27
  14.500000 1 181100EFx       Tx   d 8 00 00 6E 00 20 4E 20 4E
  14.750000 2 18FF90F3x       Tx   d 8 01 A8 00 00 00 00 00 00
  14.750000 2 18FF10F3x       Tx   d 8 00 00 00 00 00 00 88 13
  14.750000 2 18FF11F3x       Tx   d 8 00 00 80 A2 00 00 00 00
  14.750000 2 18FF14F3x       Tx   d 8 00 80 57 00 00 0C 00 00
  14.750000 2 18FF91F3x       Tx   d 8 00 00 00 01 00 00 00 00
  14.750000 2 18FFB2F3x       Tx   d 8 01 E8 03 F4 81 BB 80 3E
  14.750000 2 18FFB3F3x       Tx   d 8 07 78 8C A0 B4 C8 DC F0
  14.750000 1 18EF49EFx       Tx   d 8 01 02 10 00 00 00 00 00
  14.750000 1 18FEF117x       Tx   d 8 00 00 00 00 00 00 00 00
  14.750000 1 18EBFFD7x       Tx   d 8 46 F4 10 00 00 00 00 00
  14.750000 1 18F00503x       Tx   d 8 00 00 00 7D 00 00 53 00
  14.750000 1 181000EFx       Tx   d 8 11 03 6E 00 00 00 10 27
  14.750000 1 181100EFx       Tx   d 8 00 00 6E 00 20 4E 20 4E
  15.000000 2 18FF90F3x       Tx   d 8 01 A8 00 00 00 00 00 00
  15.000000 2 18FF10F3x       Tx   d 8 00 00 00 00 00 00 88 13
  15.000000 2 18FF11F3x       Tx   d 8 00 00 80 A2 00 00 00 00
  15.000000 2 18FF14F3x       Tx   d 8 00 80 57 00 00 0C 00 00
  15.000000 2 18FF91F3x       Tx   d 8 00 00 00 01 00 00 00 00
  15.000000 2 18FFB2F3x       Tx   d 8 01 E8 03 F4 81 BB 80 3E
  15.000000 2 18FFB3F3x       Tx   d 8 07 78 8C A0 B4 C8 DC F0
  15.000000 1 18EF49EFx       Tx   d 8 01 02 10 00 00 00 00 00
  15.000000 1 18FEF117x       Tx   d 8 00 00 00 00 00 00 00 00
  15.000000 1 18EBFFD7x       Tx   d 8 46 F4 10 00 00 00 00 00
  15.000000 1 18F00503x       Tx   d 8 00 00 00 7D 00 00 53 00
  15.000000 1 181000EFx       Tx   d 8 11 03 6E 00 00 00 10 27
