date Fri Mar 17 14:19:20 2017
base hex  timestamps absolute
no internal events logged
   0.000000 2 18FF90F3x       Tx   d 8 01 A8 00 00 00 00 00 00
   0.000000 2 18FF10F3x       Tx   d 8 00 00 00 00 00 00 88 13
   0.000000 2 18FF11F3x       Tx   d 8 00 00 80 A2 00 00 00 00
   0.000000 2 18FF14F3x       Tx   d 8 00 20 4E 00 00 0C 00 00
   0.000000 2 18FF91F3x       Tx   d 8 00 00 00 01 00 00 00 00
   0.000000 2 18FFB2F3x       Tx   d 8 1B E8 03 F4 81 BB 80 3E
   0.000000 2 18FFB3F3x       Tx   d 8 05 78 8C A0 B4 C8 DC F0
   0.000000 1 18EF49EFx       Tx   d 8 01 00 10 00 00 00 00 00
   0.000000 1 18FEF117x       Tx   d 8 00 00 00 00 00 00 00 00
   0.000000 1 18EBFFD7x       Tx   d 8 46 F4 10 00 00 00 00 00
   0.000000 1 18F00503x       Tx   d 8 00 00 00 7D 00 00 53 00
   0.000000 1 181000EFx       Tx   d 8 11 03 6E 00 4C 04 10 27
   0.000000 1 181100EFx       Tx   d 8 00 00 6E 00 20 4E 20 4E
   0.250000 2 18FFB2F3x       Tx   d 8 1A E8 03 F4 81 BB 80 3E
   0.250000 2 18FFB3F3x       Tx   d 8 06 78 8C A0 B4 C8 DC F0
   0.500000 2 18FFB2F3x       Tx   d 8 19 E8 03 F4 81 BB 80 3E
   0.500000 2 18FFB3F3x       Tx   d 8 06 78 8C A0 B4 C8 DC F0
   0.750000 2 18FFB2F3x       Tx   d 8 19 E8 03 F4 81 BB 80 3E
   0.750000 2 18FFB3F3x       Tx   d 8 07 78 8C A0 B4 C8 DC F0
   1.000000 2 18FF90F3x       Tx   d 8 01 A8 00 00 00 00 00 00
   1.000000 2 18FF10F3x       Tx   d 8 00 00 00 00 00 00 88 13
   1.000000 2 18FF11F3x       Tx   d 8 00 00 80 A2 00 00 00 00
   1.000000 2 18FF14F3x       Tx   d 8 00 20 4E 00 00 0C 00 00
   1.000000 2 18FF91F3x       Tx   d 8 00 00 00 01 00 00 00 00
   1.000000 2 18FFB2F3x       Tx   d 8 18 E8 03 F4 81 BB 80 3E
   1.000000 2 18FFB3F3x       Tx   d 8 07 78 8C A0 B4 C8 DC F0
   1.000000 1 18EF49EFx       Tx   d 8 01 00 10 00 00 00 00 00
   1.000000 1 18FEF117x       Tx   d 8 00 00 00 00 00 00 00 00
   1.000000 1 18EBFFD7x       Tx   d 8 46 F4 10 00 00 00 00 00
   1.000000 1 18F00503x       Tx   d 8 00 00 00 7D 00 00 53 00
   1.000000 1 181000EFx       Tx   d 8 11 03 6E 00 4C 04 10 27
   1.000000 1 181100EFx       Tx   d 8 00 00 6E 00 20 4E 20 4E
   1.250000 2 18FFB2F3x       Tx   d 8 18 E8 03 F4 81 BB 80 3E
   1.250000 2 18FFB3F3x       Tx   d 8 08 78 8C A0 B4 C8 DC F0
   1.500000 2 18FFB2F3x       Tx   d 8 17 E8 03 F4 81 BB 80 3E
   1.500000 2 18FFB3F3x       Tx   d 8 08 78 8C A0 B4 C8 DC F0
   1.750000 2 18FFB2F3x       Tx   d 8 16 E8 03 F4 81 BB 80 3E
   1.750000 2 18FFB3F3x       Tx   d 8 09 78 8C A0 B4 C8 DC F0
   2.000000 2 18FF90F3x       Tx   d 8 01 A8 00 00 00 00 00 00
   2.000000 2 18FF10F3x       Tx   d 8 00 00 00 00 00 00 88 13
   2.000000 2 18FF11F3x       Tx   d 8 00 00 80 A2 00 00 00 00
   2.000000 2 18FF14F3x       Tx   d 8 00 20 4E 00 00 0C 00 00
   2.000000 2 18FF91F3x       Tx   d 8 00 00 00 01 00 00 00 00
   2.000000 2 18FFB2F3x       Tx   d 8 16 E8 03 F4 81 BB 80 3E
   2.000000 2 18FFB3F3x       Tx   d 8 09 78 8C A0 B4 C8 DC F0
   2.000000 1 18EF49EFx       Tx   d 8 01 00 10 00 00 00 00 00
   2.000000 1 18FEF117x       Tx   d 8 00 00 00 00 00 00 00 00
   2.000000 1 18EBFFD7x       Tx   d 8 46 F4 10 00 00 00 00 00
   2.000000 1 18F00503x       Tx   d 8 00 00 00 7D 00 00 53 00
   2.000000 1 181000EFx       Tx   d 8 11 03 6E 00 4C 04 10 27
   2.000000 1 181100EFx       Tx   d 8 00 00 6E 00 20 4E 20 4E
   2.250000 2 18FFB2F3x       Tx   d 8 15 E8 03 F4 81 BB 80 3E
   2.250000 2 18FFB3F3x       Tx   d 8 0A 78 8C A0 B4 C8 DC F0
   2.500000 2 18FFB2F3x       Tx   d 8 15 E8 03 F4 81 BB 80 3E
   2.500000 2 18FFB3F3x       Tx   d 8 0A 78 8C A0 B4 C8 DC F0
   2.750000 2 18FFB2F3x       Tx   d 8 14 E8 03 F4 81 BB 80 3E
   2.750000 2 18FFB3F3x       Tx   d 8 09 78 8C A0 B4 C8 DC F0
   3.000000 2 18FF90F3x       Tx   d 8 01 A8 00 00 00 00 00 00
   3.000000 2 18FF10F3x       Tx   d 8 00 00 00 00 00 00 88 13
   3.000000 2 18FF11F3x       Tx   d 8 00 00 80 A2 00 00 00 00
   3.000000 2 18FF14F3x       Tx   d 8 00 20 4E 00 00 0C 00 00
   3.000000 2 18FF91F3x       Tx   d 8 00 00 00 01 00 00 00 00
   3.000000 2 18FFB2F3x       Tx   d 8 13 E8 03 F4 81 BB 80 3E
   3.000000 2 18FFB3F3x       Tx   d 8 09 78 8C A0 B4 C8 DC F0
   3.000000 1 18EF49EFx       Tx   d 8 01 00 10 00 00 00 00 00
   3.000000 1 18FEF117x       Tx   d 8 00 00 00 00 00 00 00 00
   3.000000 1 18EBFFD7x       Tx   d 8 46 F4 10 00 00 00 00 00
   3.000000 1 18F00503x       Tx   d 8 00 00 00 7D 00 00 53 00
   3.000000 1 181000EFx       Tx   d 8 11 03 6E 00 4C 04 10 27
   3.000000 1 181100EFx       Tx   d 8 00 00 6E 00 20 4E 20 4E
   3.250000 2 18FFB2F3x       Tx   d 8 13 E8 03 F4 81 BB 80 3E
   3.250000 2 18FFB3F3x       Tx   d 8 08 78 8C A0 B4 C8 DC F0
   3.500000 2 18FFB2F3x       Tx   d 8 12 E8 03 F4 81 BB 80 3E
   3.500000 2 18FFB3F3x       Tx   d 8 08 78 8C A0 B4 C8 DC F0
   3.750000 2 18FFB2F3x       Tx   d 8 12 E8 03 F4 81 BB 80 3E
   3.750000 2 18FFB3F3x       Tx   d 8 07 78 8C A0 B4 C8 DC F0
   4.000000 2 18FF90F3x       Tx   d 8 01 A8 00 00 00 00 00 00
   4.000000 2 18FF10F3x       Tx   d 8 00 00 00 00 00 00 88 13
   4.000000 2 18FF11F3x       Tx   d 8 00 00 80 A2 00 00 00 00
   4.000000 2 18FF14F3x       Tx   d 8 00 20 4E 00 00 0C 00 00
   4.000000 2 18FF91F3x       Tx   d 8 00 00 00 01 00 00 00 00
   4.000000 2 18FFB2F3x       Tx   d 8 11 E8 03 F4 81 BB 80 3E
   4.000000 2 18FFB3F3x       Tx   d 8 07 78 8C A0 B4 C8 DC F0
   4.000000 1 18EF49EFx       Tx   d 8 01 00 10 00 00 00 00 00
   4.000000 1 18FEF117x       Tx   d 8 00 00 00 00 00 00 00 00
   4.000000 1 18EBFFD7x       Tx   d 8 46 F4 10 00 00 00 00 00
   4.000000 1 18F00503x       Tx   d 8 00 00 00 7D 00 00 53 00
   4.000000 1 181000EFx       Tx   d 8 11 03 6E 00 4C 04 10 27
   4.000000 1 181100EFx       Tx   d 8 00 00 6E 00 20 4E 20 4E
   4.250000 2 18FFB2F3x       Tx   d 8 10 E8 03 F4 81 BB 80 3E
   4.250000 2 18FFB3F3x       Tx   d 8 07 78 8C A0 B4 C8 DC F0
   4.500000 2 18FFB2F3x       Tx   d 8 10 E8 03 F4 81 BB 80 3E
   4.500000 2 18FFB3F3x       Tx   d 8 06 78 8C A0 B4 C8 DC F0
   4.750000 2 18FFB2F3x       Tx   d 8 0F E8 03 F4 81 BB 80 3E
   4.750000 2 18FFB3F3x       Tx   d 8 06 78 8C A0 B4 C8 DC F0
   5.000000 2 18FF90F3x       Tx   d 8 01 A8 00 00 00 00 00 00
   5.000000 2 18FF10F3x       Tx   d 8 00 00 00 00 00 00 88 13
   5.000000 2 18FF11F3x       Tx   d 8 00 00 80 A2 00 00 00 00
   5.000000 2 18FF14F3x       Tx   d 8 00 20 4E 00 00 0C 00 00
   5.000000 2 18FF91F3x       Tx   d 8 00 00 00 01 00 00 00 00
   5.000000 2 18FFB2F3x       Tx   d 8 0E E8 03 F4 81 BB 80 3E
   5.000000 2 18FFB3F3x       Tx   d 8 05 78 8C A0 B4 C8 DC F0
   5.000000 1 18EF49EFx       Tx   d 8 01 00 10 00 00 00 00 00
   5.000000 1 18FEF117x       Tx   d 8 00 00 00 00 00 00 00 00
   5.000000 1 18EBFFD7x       Tx   d 8 46 F4 10 00 00 00 00 00
   5.000000 1 18F00503x       Tx   d 8 00 00 00 7D 00 00 53 00
   5.000000 1 181000EFx       Tx   d 8 11 03 6E 00 4C 04 10 27
   5.000000 1 181100EFx       Tx   d 8 00 00 6E 00 20 4E 20 4E
   5.250000 2 18FFB2F3x       Tx   d 8 0E E8 03 F4 81 BB 80 3E
   5.250000 2 18FFB3F3x       Tx   d 8 05 78 8C A0 B4 C8 DC F0
   5.500000 2 18FFB2F3x       Tx   d 8 0D E8 03 F4 81 BB 80 3E
   5.500000 2 18FFB3F3x       Tx   d 8 04 78 8C A0 B4 C8 DC F0
   5.750000 2 18FFB2F3x       Tx   d 8 0D E8 03 F4 81 BB 80 3E
   5.750000 2 18FFB3F3x       Tx   d 8 04 78 8C A0 B4 C8 DC F0
   6.000000 2 18FF90F3x       Tx   d 8 01 A8 00 00 00 00 00 00
   6.000000 2 18FF10F3x       Tx   d 8 00 00 00 00 00 00 88 13
   6.000000 2 18FF11F3x       Tx   d 8 00 00 80 A2 00 00 00 00
   6.000000 2 18FF14F3x       Tx   d 8 00 20 4E 00 00 0C 00 00
   6.000000 2 18FF91F3x       Tx   d 8 00 00 00 01 00 00 00 00
   6.000000 2 18FFB2F3x       Tx   d 8 0C E8 03 F4 81 BB 80 3E
   6.000000 2 18FFB3F3x       Tx   d 8 03 78 8C A0 B4 C8 DC F0
   6.000000 1 18EF49EFx       Tx   d 8 01 00 10 00 00 00 00 00
   6.000000 1 18FEF117x       Tx   d 8 00 00 00 00 00 00 00 00
   6.000000 1 18EBFFD7x       Tx   d 8 46 F4 10 00 00 00 00 00
   6.000000 1 18F00503x       Tx   d 8 00 00 00 7D 00 00 53 00
   6.000000 1 181000EFx       Tx   d 8 11 03 6E 00 4C 04 10 27
   6.000000 1 181100EFx       Tx   d 8 00 00 6E 00 20 4E 20 4E
   6.250000 2 18FFB2F3x       Tx   d 8 0B E8 03 F4 81 BB 80 3E
   6.250000 2 18FFB3F3x       Tx   d 8 03 78 8C A0 B4 C8 DC F0
   6.500000 2 18FFB2F3x       Tx   d 8 0B E8 03 F4 81 BB 80 3E
   6.500000 2 18FFB3F3x       Tx   d 8 02 78 8C A0 B4 C8 DC F0
   6.750000 2 18FFB2F3x       Tx   d 8 0A E8 03 F4 81 BB 80 3E
   6.750000 2 18FFB3F3x       Tx   d 8 02 78 8C A0 B4 C8 DC F0
   7.000000 2 18FF90F3x       Tx   d 8 01 A8 00 00 00 00 00 00
   7.000000 2 18FF10F3x       Tx   d 8 00 00 00 00 00 00 88 13
   7.000000 2 18FF11F3x       Tx   d 8 00 00 80 A2 00 00 00 00
   7.000000 2 18FF14F3x       Tx   d 8 00 20 4E 00 00 0C 00 00
   7.000000 2 18FF91F3x       Tx   d 8 00 00 00 01 00 00 00 00
   7.000000 2 18FFB2F3x       Tx   d 8 0A E8 03 F4 81 BB 80 3E
   7.000000 2 18FFB3F3x       Tx   d 8 01 78 8C A0 B4 C8 DC F0
   7.000000 1 18EF49EFx       Tx   d 8 01 00 10 00 00 00 00 00
   7.000000 1 18FEF117x       Tx   d 8 00 00 00 00 00 00 00 00
   7.000000 1 18EBFFD7x       Tx   d 8 46 F4 10 00 00 00 00 00
   7.000000 1 18F00503x       Tx   d 8 00 00 00 7D 00 00 53 00
   7.000000 1 181000EFx       Tx   d 8 11 03 6E 00 4C 04 10 27
   7.000000 1 181100EFx       Tx   d 8 00 00 6E 00 20 4E 20 4E
   7.250000 2 18FFB2F3x       Tx   d 8 09 E8 03 F4 81 BB 80 3E
   7.250000 2 18FFB3F3x       Tx   d 8 01 78 8C A0 B4 C8 DC F0
   7.500000 2 18FFB2F3x       Tx   d 8 08 E8 03 F4 81 BB 80 3E
   7.500000 2 18FFB3F3x       Tx   d 8 01 78 8C A0 B4 C8 DC F0
   7.750000 2 18FFB2F3x       Tx   d 8 08 E8 03 F4 81 BB 80 3E
   7.750000 2 18FFB3F3x       Tx   d 8 01 78 8C A0 B4 C8 DC F0
   8.000000 2 18FF90F3x       Tx   d 8 01 A8 00 00 00 00 00 00
   8.000000 2 18FF10F3x       Tx   d 8 00 00 00 00 00 00 88 13
   8.000000 2 18FF11F3x       Tx   d 8 00 00 80 A2 00 00 00 00
   8.000000 2 18FF14F3x       Tx   d 8 00 20 4E 00 00 0C 00 00
   8.000000 2 18FF91F3x       Tx   d 8 00 00 00 01 00 00 00 00
   8.000000 2 18FFB2F3x       Tx   d 8 07 E8 03 F4 81 BB 80 3E
   8.000000 2 18FFB3F3x       Tx   d 8 02 78 8C A0 B4 C8 DC F0
   8.000000 1 18EF49EFx       Tx   d 8 01 00 10 00 00 00 00 00
   8.000000 1 18FEF117x       Tx   d 8 00 00 00 00 00 00 00 00
   8.000000 1 18EBFFD7x       Tx   d 8 46 F4 10 00 00 00 00 00
   8.000000 1 18F00503x       Tx   d 8 00 00 00 7D 00 00 53 00
   8.000000 1 181000EFx       Tx   d 8 11 03 6E 00 4C 04 10 27
   8.000000 1 181100EFx       Tx   d 8 00 00 6E 00 20 4E 20 4E
   8.250000 2 18FFB2F3x       Tx   d 8 07 E8 03 F4 81 BB 80 3E
   8.250000 2 18FFB3F3x       Tx   d 8 02 78 8C A0 B4 C8 DC F0
   8.500000 2 18FFB2F3x       Tx   d 8 06 E8 03 F4 81 BB 80 3E
   8.500000 2 18FFB3F3x       Tx   d 8 03 78 8C A0 B4 C8 DC F0
   8.750000 2 18FFB2F3x       Tx   d 8 05 E8 03 F4 81 BB 80 3E
   8.750000 2 18FFB3F3x       Tx   d 8 03 78 8C A0 B4 C8 DC F0
   9.000000 2 18FF90F3x       Tx   d 8 01 A8 00 00 00 00 00 00
   9.000000 2 18FF10F3x       Tx   d 8 00 00 00 00 00 00 88 13
   9.000000 2 18FF11F3x       Tx   d 8 00 00 80 A2 00 00 00 00
   9.000000 2 18FF14F3x       Tx   d 8 00 20 4E 00 00 0C 00 00
   9.000000 2 18FF91F3x       Tx   d 8 00 00 00 01 00 00 00 00
   9.000000 2 18FFB2F3x       Tx   d 8 05 E8 03 F4 81 BB 80 3E
   9.000000 2 18FFB3F3x       Tx   d 8 03 78 8C A0 B4 C8 DC F0
   9.000000 1 18EF49EFx       Tx   d 8 01 00 10 00 00 00 00 00
   9.000000 1 18FEF117x       Tx   d 8 00 00 00 00 00 00 00 00
   9.000000 1 18EBFFD7x       Tx   d 8 46 F4 10 00 00 00 00 00
   9.000000 1 18F00503x       Tx   d 8 00 00 00 7D 00 00 53 00
   9.000000 1 181000EFx       Tx   d 8 11 03 6E 00 4C 04 10 27
   9.000000 1 181100EFx       Tx   d 8 00 00 6E 00 20 4E 20 4E
   9.250000 2 18FFB2F3x       Tx   d 8 04 E8 03 F4 81 BB 80 3E
   9.250000 2 18FFB3F3x       Tx   d 8 04 78 8C A0 B4 C8 DC F0
   9.500000 2 18FFB2F3x       Tx   d 8 04 E8 03 F4 81 BB 80 3E
   9.500000 2 18FFB3F3x       Tx   d 8 04 78 8C A0 B4 C8 DC F0
   9.750000 2 18FFB2F3x       Tx   d 8 03 E8 03 F4 81 BB 80 3E
   9.750000 2 18FFB3F3x       Tx   d 8 05 78 8C A0 B4 C8 DC F0
  10.000000 2 18FF90F3x       Tx   d 8 01 A8 00 00 00 00 00 00
  10.000000 2 18FF10F3x       Tx   d 8 00 00 00 00 00 00 88 13
  10.000000 2 18FF11F3x       Tx   d 8 00 00 80 A2 00 00 00 00
  10.000000 2 18FF14F3x       Tx   d 8 00 20 4E 00 00 0C 00 00
  10.000000 2 18FF91F3x       Tx   d 8 00 00 00 01 00 00 00 00
  10.000000 2 18FFB2F3x       Tx   d 8 02 E8 03 F4 81 BB 80 3E
  10.000000 2 18FFB3F3x       Tx   d 8 05 78 8C A0 B4 C8 DC F0
  10.000000 1 18EF49EFx       Tx   d 8 01 00 10 00 00 00 00 00
  10.000000 1 18FEF117x       Tx   d 8 00 00 00 00 00 00 00 00
  10.000000 1 18EBFFD7x       Tx   d 8 46 F4 10 00 00 00 00 00
  10.000000 1 18F00503x       Tx   d 8 00 00 00 7D 00 00 53 00
  10.000000 1 181000EFx       Tx   d 8 11 03 6E 00 4C 04 10 27
  10.000000 1 181100EFx       Tx   d 8 00 00 6E 00 20 4E 20 4E
  10.250000 2 18FFB2F3x       Tx   d 8 02 E8 03 F4 81 BB 80 3E
  10.250000 2 18FFB3F3x       Tx   d 8 06 78 8C A0 B4 C8 DC F0
  10.500000 2 18FFB2F3x       Tx   d 8 01 E8 03 F4 81 BB 80 3E
  10.500000 2 18FFB3F3x       Tx   d 8 06 78 8C A0 B4 C8 DC F0
  10.750000 2 18FFB2F3x       Tx   d 8 01 E8 03 F4 81 BB 80 3E
  10.750000 2 18FFB3F3x       Tx   d 8 07 78 8C A0 B4 C8 DC F0
  11.000000 2 18FF90F3x       Tx   d 8 01 A8 00 00 00 00 00 00
  11.000000 2 18FF10F3x       Tx   d 8 00 00 00 00 00 00 88 13
  11.000000 2 18FF11F3x       Tx   d 8 00 00 80 A2 00 00 00 00
  11.000000 2 18FF14F3x       Tx   d 8 00 20 4E 00 00 0C 00 00
  11.000000 2 18FF91F3x       Tx   d 8 00 00 00 01 00 00 00 00
  11.000000 2 18FFB2F3x       Tx   d 8 01 E8 03 F4 81 BB 80 3E
  11.000000 2 18FFB3F3x       Tx   d 8 07 78 8C A0 B4 C8 DC F0
  11.000000 1 18EF49EFx       Tx   d 8 11 00 10 00 00 00 00 00
  11.000000 1 18FEF117x       Tx   d 8 00 00 00 00 00 00 00 00
  11.000000 1 18EBFFD7x       Tx   d 8 46 F4 10 00 00 00 00 00
  11.000000 1 18F00503x       Tx   d 8 00 00 00 7D 00 00 53 00
  11.000000 1 181000EFx       Tx   d 8 11 01 6E 00 4C 04 3C 28
  11.000000 1 181100EFx       Tx   d 8 00 00 6E 00 20 4E 20 4E
  11.250000 2 18FFB2F3x       Tx   d 8 02 E8 03 F4 81 BB 80 3E
  11.250000 2 18FFB3F3x       Tx   d 8 08 78 8C A0 B4 C8 DC F0
  11.500000 2 18FFB2F3x       Tx   d 8 02 E8 03 F4 81 BB 80 3E
  11.500000 2 18FFB3F3x       Tx   d 8 08 78 8C A0 B4 C8 DC F0
  11.750000 2 18FFB2F3x       Tx   d 8 03 E8 03 F4 81 BB 80 3E
  11.750000 2 18FFB3F3x       Tx   d 8 09 78 8C A0 B4 C8 DC F0
  12.000000 2 18FF90F3x       Tx   d 8 01 A8 00 00 00 00 00 00
  12.000000 2 18FF10F3x       Tx   d 8 00 00 00 00 00 00 88 13
  12.000000 2 18FF11F3x       Tx   d 8 00 00 80 A2 00 00 00 00
  12.000000 2 18FF14F3x       Tx   d 8 00 20 4E 00 00 0C 00 00
  12.000000 2 18FF91F3x       Tx   d 8 00 00 00 01 00 00 00 00
  12.000000 2 18FFB2F3x       Tx   d 8 04 E8 03 F4 81 BB 80 3E
  12.000000 2 18FFB3F3x       Tx   d 8 09 78 8C A0 B4 C8 DC F0
  12.000000 1 18EF49EFx       Tx   d 8 11 00 10 00 00 00 00 00
  12.000000 1 18FEF117x       Tx   d 8 00 00 00 00 00 00 00 00
  12.000000 1 18EBFFD7x       Tx   d 8 46 F4 10 00 00 00 00 00
  12.000000 1 18F00503x       Tx   d 8 00 00 00 7D 00 00 53 00
  12.000000 1 181000EFx       Tx   d 8 11 01 6E 00 4C 04 3C 28
  12.000000 1 181100EFx       Tx   d 8 00 00 6E 00 20 4E 20 4E
  12.250000 2 18FFB2F3x       Tx   d 8 04 E8 03 F4 81 BB 80 3E
  12.250000 2 18FFB3F3x       Tx   d 8 0A 78 8C A0 B4 C8 DC F0
  12.500000 2 18FFB2F3x       Tx   d 8 05 E8 03 F4 81 BB 80 3E
  12.500000 2 18FFB3F3x       Tx   d 8 0A 78 8C A0 B4 C8 DC F0
  12.750000 2 18FFB2F3x       Tx   d 8 05 E8 03 F4 81 BB 80 3E
  12.750000 2 18FFB3F3x       Tx   d 8 09 78 8C A0 B4 C8 DC F0
  13.000000 2 18FF90F3x       Tx   d 8 01 A8 00 00 00 00 00 00
  13.000000 2 18FF10F3x       Tx   d 8 00 00 00 00 00 00 88 13
  13.000000 2 18FF11F3x       Tx   d 8 00 00 80 A2 00 00 00 00
  13.000000 2 18FF14F3x       Tx   d 8 00 20 4E 00 00 0C 00 00
  13.000000 2 18FF91F3x       Tx   d 8 00 00 00 01 00 00 00 00
  13.000000 2 18FFB2F3x       Tx   d 8 06 E8 03 F4 81 BB 80 3E
  13.000000 2 18FFB3F3x       Tx   d 8 09 78 8C A0 B4 C8 DC F0
  13.000000 1 18EF49EFx       Tx   d 8 11 00 10 00 00 00 00 00
  13.000000 1 18FEF117x       Tx   d 8 00 00 00 00 00 00 00 00
  13.000000 1 18EBFFD7x       Tx   d 8 46 F4 10 00 00 00 00 00
  13.000000 1 18F00503x       Tx   d 8 00 00 00 7D 00 00 53 00
  13.000000 1 181000EFx       Tx   d 8 11 01 6E 00 4C 04 3C 28
  13.000000 1 181100EFx       Tx   d 8 00 00 6E 00 20 4E 20 4E
  13.250000 2 18FFB2F3x       Tx   d 8 07 E8 03 F4 81 BB 80 3E
  13.250000 2 18FFB3F3x       Tx   d 8 08 78 8C A0 B4 C8 DC F0
  13.500000 2 18FFB2F3x       Tx   d 8 07 E8 03 F4 81 BB 80 3E
  13.500000 2 18FFB3F3x       Tx   d 8 08 78 8C A0 B4 C8 DC F0
  13.750000 2 18FFB2F3x       Tx   d 8 08 E8 03 F4 81 BB 80 3E
  13.750000 2 18FFB3F3x       Tx   d 8 07 78 8C A0 B4 C8 DC F0
  14.000000 2 18FF90F3x       Tx   d 8 01 A8 00 00 00 00 00 00
  14.000000 2 18FF10F3x       Tx   d 8 00 00 00 00 00 00 88 13
  14.000000 2 18FF11F3x       Tx   d 8 00 00 80 A2 00 00 00 00
  14.000000 2 18FF14F3x       Tx   d 8 00 20 4E 00 00 0C 00 00
  14.000000 2 18FF91F3x       Tx   d 8 00 00 00 01 00 00 00 00
  14.000000 2 18FFB2F3x       Tx   d 8 08 E8 03 F4 81 BB 80 3E
  14.000000 2 18FFB3F3x       Tx   d 8 07 78 8C A0 B4 C8 DC F0
  14.000000 1 18EF49EFx       Tx   d 8 11 00 10 00 00 00 00 00
  14.000000 1 18FEF117x       Tx   d 8 00 00 00 00 00 00 00 00
  14.000000 1 18EBFFD7x       Tx   d 8 46 F4 10 00 00 00 00 00
  14.000000 1 18F00503x       Tx   d 8 00 00 00 7D 00 00 53 00
  14.000000 1 181000EFx       Tx   d 8 11 01 6E 00 4C 04 3C 28
  14.000000 1 181100EFx       Tx   d 8 00 00 6E 00 20 4E 20 4E
  14.250000 2 18FFB2F3x       Tx   d 8 09 E8 03 F4 81 BB 80 3E
  14.250000 2 18FFB3F3x       Tx   d 8 07 78 8C A0 B4 C8 DC F0
  14.500000 2 18FFB2F3x       Tx   d 8 0A E8 03 F4 81 BB 80 3E
  14.500000 2 18FFB3F3x       Tx   d 8 06 78 8C A0 B4 C8 DC F0
  14.750000 2 18FFB2F3x       Tx   d 8 0A E8 03 F4 81 BB 80 3E
  14.750000 2 18FFB3F3x       Tx   d 8 06 78 8C A0 B4 C8 DC F0
  15.000000 2 18FF90F3x       Tx   d 8 01 A8 00 00 00 00 00 00
  15.000000 2 18FF10F3x       Tx   d 8 00 00 00 00 00 00 88 13
  15.000000 2 18FF11F3x       Tx   d 8 00 00 80 A2 00 00 00 00
  15.000000 2 18FF14F3x       Tx   d 8 00 20 4E 00 00 0C 00 00
  15.000000 2 18FF91F3x       Tx   d 8 00 00 00 01 00 00 00 00
  15.000000 2 18FFB2F3x       Tx   d 8 0B E8 03 F4 81 BB 80 3E
  15.000000 2 18FFB3F3x       Tx   d 8 05 78 8C A0 B4 C8 DC F0
  15.000000 1 18EF49EFx       Tx   d 8 11 00 10 00 00 00 00 00
  15.000000 1 18FEF117x       Tx   d 8 00 00 00 00 00 00 00 00
  15.000000 1 18EBFFD7x       Tx   d 8 46 F4 10 00 00 00 00 00
  15.000000 1 18F00503x       Tx   d 8 00 00 00 7D 00 00 53 00
  15.000000 1 181000EFx       Tx   d 8 11 01 6E 00 4C 04 3C 28
  15.000000 1 181100EFx       Tx   d 8 00 00 6E 00 20 4E 20 4E
  15.250000 2 18FFB2F3x       Tx   d 8 0B E8 03 F4 81 BB 80 3E
  15.250000 2 18FFB3F3x       Tx   d 8 05 78 8C A0 B4 C8 DC F0
  15.500000 2 18FFB2F3x       Tx   d 8 0C E8 03 F4 81 BB 80 3E
  15.500000 2 18FFB3F3x       Tx   d 8 04 78 8C A0 B4 C8 DC F0
  15.750000 2 18FFB2F3x       Tx   d 8 0D E8 03 F4 81 BB 80 3E
  15.750000 2 18FFB3F3x       Tx   d 8 04 78 8C A0 B4 C8 DC F0
  16.000000 2 18FF90F3x       Tx   d 8 01 A8 00 00 00 00 00 00
  16.000000 2 18FF10F3x       Tx   d 8 00 00 00 00 00 00 88 13
  16.000000 2 18FF11F3x       Tx   d 8 00 00 80 A2 00 00 00 00
  16.000000 2 18FF14F3x       Tx   d 8 00 20 4E 00 00 0C 00 00
  16.000000 2 18FF91F3x       Tx   d 8 00 00 00 01 00 00 00 00
  16.000000 2 18FFB2F3x       Tx   d 8 0D E8 03 F4 81 BB 80 3E
  16.000000 2 18FFB3F3x       Tx   d 8 03 78 8C A0 B4 C8 DC F0
  16.000000 1 18EF49EFx       Tx   d 8 11 00 10 32 00 00 00 00
  16.000000 1 18FEF117x       Tx   d 8 00 00 00 00 00 00 00 00
  16.000000 1 18EBFFD7x       Tx   d 8 46 F4 10 00 00 00 00 00
  16.000000 1 18F00503x       Tx   d 8 00 00 00 7D 00 00 44 00
  16.000000 1 181000EFx       Tx   d 8 11 01 6E 00 4C 04 3C 28
  16.000000 1 181100EFx       Tx   d 8 00 00 6E 00 20 4E 20 4E
  16.250000 2 18FFB2F3x       Tx   d 8 0E E8 03 F4 81 BB 80 3E
  16.250000 2 18FFB3F3x       Tx   d 8 03 78 8C A0 B4 C8 DC F0
  16.500000 2 18FFB2F3x       Tx   d 8 0E E8 03 F4 81 BB 80 3E
  16.500000 2 18FFB3F3x       Tx   d 8 02 78 8C A0 B4 C8 DC F0
  16.750000 2 18FFB2F3x       Tx   d 8 0F E8 03 F4 81 BB 80 3E
  16.750000 2 18FFB3F3x       Tx   d 8 02 78 8C A0 B4 C8 DC F0
  17.000000 2 18FF90F3x       Tx   d 8 01 A8 00 00 00 00 00 00
  17.000000 2 18FF10F3x       Tx   d 8 00 00 00 00 00 00 88 13
  17.000000 2 18FF11F3x       Tx   d 8 00 00 80 A2 00 00 00 00
  17.000000 2 18FF14F3x       Tx   d 8 00 20 4E 00 00 0C 00 00
  17.000000 2 18FF91F3x       Tx   d 8 00 00 00 01 00 00 00 00
  17.000000 2 18FFB2F3x       Tx   d 8 10 E8 03 F4 81 BB 80 3E
  17.000000 2 18FFB3F3x       Tx   d 8 01 78 8C A0 B4 C8 DC F0
  17.000000 1 18EF49EFx       Tx   d 8 11 00 10 32 00 00 00 00
  17.000000 1 18FEF117x       Tx   d 8 00 00 03 00 00 00 00 00
  17.000000 1 18EBFFD7x       Tx   d 8 46 F4 10 00 00 00 00 00
  17.000000 1 18F00503x       Tx   d 8 00 00 00 7D 00 00 44 00
  17.000000 1 181000EFx       Tx   d 8 11 01 6E 00 4C 04 3C 28
  17.000000 1 181100EFx       Tx   d 8 00 00 6E 00 3E 4E 84 4E
  17.250000 2 18FFB2F3x       Tx   d 8 10 E8 03 F4 81 BB 80 3E
  17.250000 2 18FFB3F3x       Tx   d 8 01 78 8C A0 B4 C8 DC F0
  17.500000 2 18FFB2F3x       Tx   d 8 11 E8 03 F4 81 BB 80 3E
  17.500000 2 18FFB3F3x       Tx   d 8 01 78 8C A0 B4 C8 DC F0
  17.750000 2 18FFB2F3x       Tx   d 8 11 E8 03 F4 81 BB 80 3E
  17.750000 2 18FFB3F3x       Tx   d 8 01 78 8C A0 B4 C8 DC F0
  18.000000 2 18FF90F3x       Tx   d 8 01 A8 00 00 00 00 00 00
  18.000000 2 18FF10F3x       Tx   d 8 00 00 00 00 00 00 88 13
  18.000000 2 18FF11F3x       Tx   d 8 00 00 80 A2 00 00 00 00
  18.000000 2 18FF14F3x       Tx   d 8 00 20 4E 00 00 0C 00 00
  18.000000 2 18FF91F3x       Tx   d 8 00 00 00 01 00 00 00 00
  18.000000 2 18FFB2F3x       Tx   d 8 12 E8 03 F4 81 BB 80 3E
  18.000000 2 18FFB3F3x       Tx   d 8 02 78 8C A0 B4 C8 DC F0
  18.000000 1 18EF49EFx       Tx   d 8 11 00 10 32 00 00 00 00
  18.000000 1 18FEF117x       Tx   d 8 00 00 06 00 00 00 00 00
  18.000000 1 18EBFFD7x       Tx   d 8 46 F4 10 00 00 00 00 00
  18.000000 1 18F00503x       Tx   d 8 00 00 00 7D 00 00 44 00
  18.000000 1 181000EFx       Tx   d 8 11 01 6E 00 4C 04 3C 28
  18.000000 1 181100EFx       Tx   d 8 00 00 6E 00 5C 4E E8 4E
  18.250000 2 18FFB2F3x       Tx   d 8 13 E8 03 F4 81 BB 80 3E
  18.250000 2 18FFB3F3x       Tx   d 8 02 78 8C A0 B4 C8 DC F0
  18.500000 2 18FFB2F3x       Tx   d 8 13 E8 03 F4 81 BB 80 3E
  18.500000 2 18FFB3F3x       Tx   d 8 03 78 8C A0 B4 C8 DC F0
  18.750000 2 18FFB2F3x       Tx   d 8 14 E8 03 F4 81 BB 80 3E
  18.750000 2 18FFB3F3x       Tx   d 8 03 78 8C A0 B4 C8 DC F0
  19.000000 2 18FF90F3x       Tx   d 8 01 A8 00 00 00 00 00 00
  19.000000 2 18FF10F3x       Tx   d 8 00 00 00 00 00 00 88 13
  19.000000 2 18FF11F3x       Tx   d 8 00 00 80 A2 00 00 00 00
  19.000000 2 18FF14F3x       Tx   d 8 00 20 4E 00 00 0C 00 00
  19.000000 2 18FF91F3x       Tx   d 8 00 00 00 01 00 00 00 00
  19.000000 2 18FFB2F3x       Tx   d 8 15 E8 03 F4 81 BB 80 3E
  19.000000 2 18FFB3F3x       Tx   d 8 03 78 8C A0 B4 C8 DC F0
  19.000000 1 18EF49EFx       Tx   d 8 11 00 10 32 00 00 00 00
  19.000000 1 18FEF117x       Tx   d 8 00 00 09 00 00 00 00 00
  19.000000 1 18EBFFD7x       Tx   d 8 46 F4 10 00 00 00 00 00
  19.000000 1 18F00503x       Tx   d 8 00 00 00 7D 00 00 44 00
  19.000000 1 181000EFx       Tx   d 8 11 01 6E 00 4C 04 3C 28
  19.000000 1 181100EFx       Tx   d 8 00 00 6E 00 7A 4E 4C 4F
  19.250000 2 18FFB2F3x       Tx   d 8 15 E8 03 F4 81 BB 80 3E
  19.250000 2 18FFB3F3x       Tx   d 8 04 78 8C A0 B4 C8 DC F0
  19.500000 2 18FFB2F3x       Tx   d 8 16 E8 03 F4 81 BB 80 3E
  19.500000 2 18FFB3F3x       Tx   d 8 04 78 8C A0 B4 C8 DC F0
  19.750000 2 18FFB2F3x       Tx   d 8 16 E8 03 F4 81 BB 80 3E
  19.750000 2 18FFB3F3x       Tx   d 8 05 78 8C A0 B4 C8 DC F0
  20.000000 2 18FF90F3x       Tx   d 8 01 A8 00 00 00 00 00 00
  20.000000 2 18FF10F3x       Tx   d 8 00 00 00 00 00 00 88 13
  20.000000 2 18FF11F3x       Tx   d 8 00 00 80 A2 00 00 00 00
  20.000000 2 18FF14F3x       Tx   d 8 00 20 4E 00 00 0C 00 00
  20.000000 2 18FF91F3x       Tx   d 8 00 00 00 01 00 00 00 00
  20.000000 2 18FFB2F3x       Tx   d 8 17 E8 03 F4 81 BB 80 3E
  20.000000 2 18FFB3F3x       Tx   d 8 05 78 8C A0 B4 C8 DC F0
  20.000000 1 18EF49EFx       Tx   d 8 11 00 10 32 00 00 00 00
  20.000000 1 18FEF117x       Tx   d 8 00 00 0C 00 00 00 00 00
  20.000000 1 18EBFFD7x       Tx   d 8 46 F4 10 00 00 00 00 00
  20.000000 1 18F00503x       Tx   d 8 00 00 00 7D 00 00 44 00
  20.000000 1 181000EFx       Tx   d 8 11 01 6E 00 4C 04 3C 28
  20.000000 1 181100EFx       Tx   d 8 00 00 6E 00 98 4E B0 4F
  20.250000 2 18FFB2F3x       Tx   d 8 18 E8 03 F4 81 BB 80 3E
  20.250000 2 18FFB3F3x       Tx   d 8 06 78 8C A0 B4 C8 DC F0
  20.500000 2 18FFB2F3x       Tx   d 8 18 E8 03 F4 81 BB 80 3E
  20.500000 2 18FFB3F3x       Tx   d 8 06 78 8C A0 B4 C8 DC F0
  20.750000 2 18FFB2F3x       Tx   d 8 19 E8 03 F4 81 BB 80 3E
  20.750000 2 18FFB3F3x       Tx   d 8 07 78 8C A0 B4 C8 DC F0
  21.000000 2 18FF90F3x       Tx   d 8 01 A8 00 00 00 00 00 00
  21.000000 2 18FF10F3x       Tx   d 8 00 00 00 00 00 00 88 13
  21.000000 2 18FF11F3x       Tx   d 8 00 00 80 A2 00 00 00 00
  21.000000 2 18FF14F3x       Tx   d 8 00 20 4E 00 00 0C 00 00
  21.000000 2 18FF91F3x       Tx   d 8 00 00 00 01 00 00 00 00
  21.000000 2 18FFB2F3x       Tx   d 8 19 E8 03 F4 81 BB 80 3E
  21.000000 2 18FFB3F3x       Tx   d 8 07 78 8C A0 B4 C8 DC F0
  21.000000 1 18EF49EFx       Tx   d 8 11 00 10 32 00 00 00 00
  21.000000 1 18FEF117x       Tx   d 8 00 00 0F 00 00 00 00 00
  21.000000 1 18EBFFD7x       Tx   d 8 46 F4 10 00 00 00 00 00
  21.000000 1 18F00503x       Tx   d 8 00 00 00 7D 00 00 44 00
  21.000000 1 181000EFx       Tx   d 8 11 01 6E 00 4C 04 3C 28
  21.000000 1 181100EFx       Tx   d 8 00 00 6E 00 B6 4E 14 50
  21.250000 2 18FFB2F3x       Tx   d 8 1A E8 03 F4 81 BB 80 3E
  21.250000 2 18FFB3F3x       Tx   d 8 08 78 8C A0 B4 C8 DC F0
  21.500000 2 18FFB2F3x       Tx   d 8 1B E8 03 F4 81 BB 80 3E
  21.500000 2 18FFB3F3x       Tx   d 8 08 78 8C A0 B4 C8 DC F0
  21.750000 2 18FFB2F3x       Tx   d 8 1B E8 03 F4 81 BB 80 3E
  21.750000 2 18FFB3F3x       Tx   d 8 09 78 8C A0 B4 C8 DC F0
  22.000000 2 18FF90F3x       Tx   d 8 01 A8 00 00 00 00 00 00
  22.000000 2 18FF10F3x       Tx   d 8 00 00 00 00 00 00 88 13
  22.000000 2 18FF11F3x       Tx   d 8 00 00 80 A2 00 00 00 00
  22.000000 2 18FF14F3x       Tx   d 8 00 20 4E 00 00 0C 00 00
  22.000000 2 18FF91F3x       Tx   d 8 00 00 00 01 00 00 00 00
  22.000000 2 18FFB2F3x       Tx   d 8 1C E8 03 F4 81 BB 80 3E
  22.000000 2 18FFB3F3x       Tx   d 8 09 78 8C A0 B4 C8 DC F0
  22.000000 1 18EF49EFx       Tx   d 8 11 00 10 32 00 00 00 00
  22.000000 1 18FEF117x       Tx   d 8 00 00 12 00 00 00 00 00
  22.000000 1 18EBFFD7x       Tx   d 8 46 F4 10 00 00 00 00 00
  22.000000 1 18F00503x       Tx   d 8 00 00 00 7D 00 00 44 00
  22.000000 1 181000EFx       Tx   d 8 11 01 6E 00 4C 04 3C 28
  22.000000 1 181100EFx       Tx   d 8 00 00 6E 00 D4 4E 78 50
  22.250000 2 18FFB2F3x       Tx   d 8 1C E8 03 F4 81 BB 80 3E
  22.250000 2 18FFB3F3x       Tx   d 8 0A 78 8C A0 B4 C8 DC F0
  22.500000 2 18FFB2F3x       Tx   d 8 1D E8 03 F4 81 BB 80 3E
  22.500000 2 18FFB3F3x       Tx   d 8 0A 78 8C A0 B4 C8 DC F0
  22.750000 2 18FFB2F3x       Tx   d 8 1E E8 03 F4 81 BB 80 3E
  22.750000 2 18FFB3F3x       Tx   d 8 09 78 8C A0 B4 C8 DC F0
  23.000000 2 18FF90F3x       Tx   d 8 01 A8 00 00 00 00 00 00
  23.000000 2 18FF10F3x       Tx   d 8 00 00 00 00 00 00 88 13
  23.000000 2 18FF11F3x       Tx   d 8 00 00 80 A2 00 00 00 00
  23.000000 2 18FF14F3x       Tx   d 8 00 20 4E 00 00 0C 00 00
  23.000000 2 18FF91F3x       Tx   d 8 00 00 00 01 00 00 00 00
  23.000000 2 18FFB2F3x       Tx   d 8 1E E8 03 F4 81 BB 80 3E
  23.000000 2 18FFB3F3x       Tx   d 8 09 78 8C A0 B4 C8 DC F0
  23.000000 1 18EF49EFx       Tx   d 8 11 00 10 32 00 00 00 00
  23.000000 1 18FEF117x       Tx   d 8 00 00 15 00 00 00 00 00
  23.000000 1 18EBFFD7x       Tx   d 8 46 F4 10 00 00 00 00 00
  23.000000 1 18F00503x       Tx   d 8 00 00 00 7D 00 00 44 00
  23.000000 1 181000EFx       Tx   d 8 11 01 6E 00 4C 04 3C 28
  23.000000 1 181100EFx       Tx   d 8 00 00 6E 00 F2 4E DC 50
  23.250000 2 18FFB2F3x       Tx   d 8 1F E8 03 F4 81 BB 80 3E
  23.250000 2 18FFB3F3x       Tx   d 8 08 78 8C A0 B4 C8 DC F0
  23.500000 2 18FFB2F3x       Tx   d 8 1F E8 03 F4 81 BB 80 3E
  23.500000 2 18FFB3F3x       Tx   d 8 08 78 8C A0 B4 C8 DC F0
  23.750000 2 18FFB2F3x       Tx   d 8 20 E8 03 F4 81 BB 80 3E
  23.750000 2 18FFB3F3x       Tx   d 8 07 78 8C A0 B4 C8 DC F0
  24.000000 2 18FF90F3x       Tx   d 8 01 A8 00 00 00 00 00 00
  24.000000 2 18FF10F3x       Tx   d 8 00 00 00 00 00 00 88 13
  24.000000 2 18FF11F3x       Tx   d 8 00 00 80 A2 00 00 00 00
  24.000000 2 18FF14F3x       Tx   d 8 00 20 4E 00 00 0C 00 00
  24.000000 2 18FF91F3x       Tx   d 8 00 00 00 01 00 00 00 00
  24.000000 2 18FFB2F3x       Tx   d 8 21 E8 03 F4 81 BB 80 3E
  24.000000 2 18FFB3F3x       Tx   d 8 07 78 8C A0 B4 C8 DC F0
  24.000000 1 18EF49EFx       Tx   d 8 11 00 10 32 00 00 00 00
  24.000000 1 18FEF117x       Tx   d 8 00 00 18 00 00 00 00 00
  24.000000 1 18EBFFD7x       Tx   d 8 46 F4 10 00 00 00 00 00
  24.000000 1 18F00503x       Tx   d 8 00 00 00 7D 00 00 44 00
  24.000000 1 181000EFx       Tx   d 8 11 01 6E 00 4C 04 3C 28
  24.000000 1 181100EFx       Tx   d 8 00 00 6E 00 10 4F 40 51
  24.250000 2 18FFB2F3x       Tx   d 8 21 E8 03 F4 81 BB 80 3E
  24.250000 2 18FFB3F3x       Tx   d 8 07 78 8C A0 B4 C8 DC F0
  24.500000 2 18FFB2F3x       Tx   d 8 22 E8 03 F4 81 BB 80 3E
  24.500000 2 18FFB3F3x       Tx   d 8 06 78 8C A0 B4 C8 DC F0
  24.750000 2 18FFB2F3x       Tx   d 8 23 E8 03 F4 81 BB 80 3E
  24.750000 2 18FFB3F3x       Tx   d 8 06 78 8C A0 B4 C8 DC F0
  25.000000 2 18FF90F3x       Tx   d 8 01 A8 00 00 00 00 00 00
  25.000000 2 18FF10F3x       Tx   d 8 00 00 00 00 00 00 88 13
  25.000000 2 18FF11F3x       Tx   d 8 00 00 80 A2 00 00 00 00
  25.000000 2 18FF14F3x       Tx   d 8 00 20 4E 00 00 0C 00 00
  25.000000 2 18FF91F3x       Tx   d 8 00 00 00 01 00 00 00 00
  25.000000 2 18FFB2F3x       Tx   d 8 23 E8 03 F4 81 BB 80 3E
  25.000000 2 18FFB3F3x       Tx   d 8 05 78 8C A0 B4 C8 DC F0
  25.000000 1 18EF49EFx       Tx   d 8 11 00 10 32 00 00 00 00
  25.000000 1 18FEF117x       Tx   d 8 00 00 1B 00 00 00 00 00
  25.000000 1 18EBFFD7x       Tx   d 8 46 F4 10 00 00 00 00 00
  25.000000 1 18F00503x       Tx   d 8 00 00 00 7D 00 00 44 00
  25.000000 1 181000EFx       Tx   d 8 11 01 6E 00 4C 04 3C 28
  25.000000 1 181100EFx       Tx   d 8 00 00 6E 00 2E 4F A4 51
  25.250000 2 18FFB2F3x       Tx   d 8 24 E8 03 F4 81 BB 80 3E
  25.250000 2 18FFB3F3x       Tx   d 8 05 78 8C A0 B4 C8 DC F0
  25.500000 2 18FFB2F3x       Tx   d 8 24 E8 03 F4 81 BB 80 3E
  25.500000 2 18FFB3F3x       Tx   d 8 04 78 8C A0 B4 C8 DC F0
  25.750000 2 18FFB2F3x       Tx   d 8 25 E8 03 F4 81 BB 80 3E
  25.750000 2 18FFB3F3x       Tx   d 8 04 78 8C A0 B4 C8 DC F0
  26.000000 2 18FF90F3x       Tx   d 8 01 A8 00 00 00 00 00 00
  26.000000 2 18FF10F3x       Tx   d 8 00 00 00 00 00 00 88 13
  26.000000 2 18FF11F3x       Tx   d 8 00 00 80 A2 00 00 00 00
  26.000000 2 18FF14F3x       Tx   d 8 00 20 4E 00 00 0C 00 00
  26.000000 2 18FF91F3x       Tx   d 8 00 00 00 01 00 00 00 00
  26.000000 2 18FFB2F3x       Tx   d 8 26 E8 03 F4 81 BB 80 3E
  26.000000 2 18FFB3F3x       Tx   d 8 03 78 8C A0 B4 C8 DC F0
  26.000000 1 18EF49EFx       Tx   d 8 11 00 10 32 00 00 00 00
  26.000000 1 18FEF117x       Tx   d 8 00 00 1E 00 00 00 00 00
  26.000000 1 18EBFFD7x       Tx   d 8 46 F4 10 00 00 00 00 00
  26.000000 1 18F00503x       Tx   d 8 00 00 00 7D 00 00 44 00
  26.000000 1 181000EFx       Tx   d 8 11 01 6E 00 4C 04 3C 28
  26.000000 1 181100EFx       Tx   d 8 00 00 6E 00 4C 4F 08 52
  26.250000 2 18FFB2F3x       Tx   d 8 26 E8 03 F4 81 BB 80 3E
  26.250000 2 18FFB3F3x       Tx   d 8 03 78 8C A0 B4 C8 DC F0
  26.500000 2 18FFB2F3x       Tx   d 8 27 E8 03 F4 81 BB 80 3E
  26.500000 2 18FFB3F3x       Tx   d 8 02 78 8C A0 B4 C8 DC F0
  26.750000 2 18FFB2F3x       Tx   d 8 27 E8 03 F4 81 BB 80 3E
  26.750000 2 18FFB3F3x       Tx   d 8 02 78 8C A0 B4 C8 DC F0
  27.000000 2 18FF90F3x       Tx   d 8 01 A8 00 00 00 00 00 00
  27.000000 2 18FF10F3x       Tx   d 8 00 00 00 00 00 00 88 13
  27.000000 2 18FF11F3x       Tx   d 8 00 00 80 A2 00 00 00 00
  27.000000 2 18FF14F3x       Tx   d 8 00 20 4E 00 00 0C 00 00
  27.000000 2 18FF91F3x       Tx   d 8 00 00 00 01 00 00 00 00
  27.000000 2 18FFB2F3x       Tx   d 8 28 E8 03 F4 81 BB 80 3E
  27.000000 2 18FFB3F3x       Tx   d 8 01 78 8C A0 B4 C8 DC F0
  27.000000 1 18EF49EFx       Tx   d 8 11 00 10 32 00 00 00 00
  27.000000 1 18FEF117x       Tx   d 8 00 00 21 00 00 00 00 00
  27.000000 1 18EBFFD7x       Tx   d 8 46 F4 10 00 00 00 00 00
  27.000000 1 18F00503x       Tx   d 8 00 00 00 7D 00 00 44 00
  27.000000 1 181000EFx       Tx   d 8 11 01 6E 00 4C 04 3C 28
  27.000000 1 181100EFx       Tx   d 8 00 00 6E 00 6A 4F 6C 52
  27.250000 2 18FFB2F3x       Tx   d 8 29 E8 03 F4 81 BB 80 3E
  27.250000 2 18FFB3F3x       Tx   d 8 01 78 8C A0 B4 C8 DC F0
  27.500000 2 18FFB2F3x       Tx   d 8 29 E8 03 F4 81 BB 80 3E
  27.500000 2 18FFB3F3x       Tx   d 8 01 78 8C A0 B4 C8 DC F0
  27.750000 2 18FFB2F3x       Tx   d 8 28 E8 03 F4 81 BB 80 3E
  27.750000 2 18FFB3F3x       Tx   d 8 01 78 8C A0 B4 C8 DC F0
  28.000000 2 18FF90F3x       Tx   d 8 01 A8 00 00 00 00 00 00
  28.000000 2 18FF10F3x       Tx   d 8 00 00 00 00 00 00 88 13
  28.000000 2 18FF11F3x       Tx   d 8 00 00 80 A2 00 00 00 00
  28.000000 2 18FF14F3x       Tx   d 8 00 20 4E 00 00 0C 00 00
  28.000000 2 18FF91F3x       Tx   d 8 00 00 00 01 00 00 00 00
  28.000000 2 18FFB2F3x       Tx   d 8 28 E8 03 F4 81 BB 80 3E
  28.000000 2 18FFB3F3x       Tx   d 8 02 78 8C A0 B4 C8 DC F0
  28.000000 1 18EF49EFx       Tx   d 8 11 00 10 32 00 00 00 00
  28.000000 1 18FEF117x       Tx   d 8 00 00 24 00 00 00 00 00
  28.000000 1 18EBFFD7x       Tx   d 8 46 F4 10 00 00 00 00 00
  28.000000 1 18F00503x       Tx   d 8 00 00 00 7D 00 00 44 00
  28.000000 1 181000EFx       Tx   d 8 11 01 6E 00 4C 04 3C 28
  28.000000 1 181100EFx       Tx   d 8 00 00 6E 00 88 4F D0 52
  28.250000 2 18FFB2F3x       Tx   d 8 27 E8 03 F4 81 BB 80 3E
  28.250000 2 18FFB3F3x       Tx   d 8 02 78 8C A0 B4 C8 DC F0
  28.500000 2 18FFB2F3x       Tx   d 8 26 E8 03 F4 81 BB 80 3E
  28.500000 2 18FFB3F3x       Tx   d 8 03 78 8C A0 B4 C8 DC F0
  28.750000 2 18FFB2F3x       Tx   d 8 26 E8 03 F4 81 BB 80 3E
  28.750000 2 18FFB3F3x       Tx   d 8 03 78 8C A0 B4 C8 DC F0
  29.000000 2 18FF90F3x       Tx   d 8 01 A8 00 00 00 00 00 00
  29.000000 2 18FF10F3x       Tx   d 8 00 00 00 00 00 00 88 13
  29.000000 2 18FF11F3x       Tx   d 8 00 00 80 A2 00 00 00 00
  29.000000 2 18FF14F3x       Tx   d 8 00 20 4E 00 00 0C 00 00
  29.000000 2 18FF91F3x       Tx   d 8 00 00 00 01 00 00 00 00
  29.000000 2 18FFB2F3x       Tx   d 8 25 E8 03 F4 81 BB 80 3E
  29.000000 2 18FFB3F3x       Tx   d 8 03 78 8C A0 B4 C8 DC F0
  29.000000 1 18EF49EFx       Tx   d 8 11 00 10 32 00 00 00 00
  29.000000 1 18FEF117x       Tx   d 8 00 00 27 00 00 00 00 00
  29.000000 1 18EBFFD7x       Tx   d 8 46 F4 10 00 00 00 00 00
  29.000000 1 18F00503x       Tx   d 8 00 00 00 7D 00 00 44 00
  29.000000 1 181000EFx       Tx   d 8 11 01 6E 00 4C 04 3C 28
  29.000000 1 181100EFx       Tx   d 8 00 00 6E 00 A6 4F 34 53
  29.250000 2 18FFB2F3x       Tx   d 8 25 E8 03 F4 81 BB 80 3E
  29.250000 2 18FFB3F3x       Tx   d 8 04 78 8C A0 B4 C8 DC F0
  29.500000 2 18FFB2F3x       Tx   d 8 24 E8 03 F4 81 BB 80 3E
  29.500000 2 18FFB3F3x       Tx   d 8 04 78 8C A0 B4 C8 DC F0
  29.750000 2 18FFB2F3x       Tx   d 8 23 E8 03 F4 81 BB 80 3E
  29.750000 2 18FFB3F3x       Tx   d 8 05 78 8C A0 B4 C8 DC F0
  30.000000 2 18FF90F3x       Tx   d 8 01 A8 00 00 00 00 00 00
  30.000000 2 18FF10F3x       Tx   d 8 00 00 00 00 00 00 88 13
  30.000000 2 18FF11F3x       Tx   d 8 00 00 80 A2 00 00 00 00
  30.000000 2 18FF14F3x       Tx   d 8 00 20 4E 00 00 0C 00 00
  30.000000 2 18FF91F3x       Tx   d 8 00 00 00 01 00 00 00 00
  30.000000 2 18FFB2F3x       Tx   d 8 23 E8 03 F4 81 BB 80 3E
  30.000000 2 18FFB3F3x       Tx   d 8 05 78 8C A0 B4 C8 DC F0
  30.000000 1 18EF49EFx       Tx   d 8 11 00 10 32 00 00 00 00
  30.000000 1 18FEF117x       Tx   d 8 00 00 2A 00 00 00 00 00
  30.000000 1 18EBFFD7x       Tx   d 8 46 F4 10 00 00 00 00 00
  30.000000 1 18F00503x       Tx   d 8 00 00 00 7D 00 00 44 00
  30.000000 1 181000EFx       Tx   d 8 11 01 6E 00 4C 04 3C 28
  30.000000 1 181100EFx       Tx   d 8 00 00 6E 00 C4 4F 98 53
  30.250000 2 18FFB2F3x       Tx   d 8 22 E8 03 F4 81 BB 80 3E
  30.250000 2 18FFB3F3x       Tx   d 8 06 78 8C A0 B4 C8 DC F0
  30.500000 2 18FFB2F3x       Tx   d 8 22 E8 03 F4 81 BB 80 3E
  30.500000 2 18FFB3F3x       Tx   d 8 06 78 8C A0 B4 C8 DC F0
  30.750000 2 18FFB2F3x       Tx   d 8 21 E8 03 F4 81 BB 80 3E
  30.750000 2 18FFB3F3x       Tx   d 8 07 78 8C A0 B4 C8 DC F0
  31.000000 2 18FF90F3x       Tx   d 8 01 A8 00 00 00 00 00 00
  31.000000 2 18FF10F3x       Tx   d 8 00 00 00 00 00 00 88 13
  31.000000 2 18FF11F3x       Tx   d 8 00 00 80 A2 00 00 00 00
  31.000000 2 18FF14F3x       Tx   d 8 00 20 4E 00 00 0C 00 00
  31.000000 2 18FF91F3x       Tx   d 8 00 00 00 01 00 00 00 00
  31.000000 2 18FFB2F3x       Tx   d 8 20 E8 03 F4 81 BB 80 3E
  31.000000 2 18FFB3F3x       Tx   d 8 07 78 8C A0 B4 C8 DC F0
  31.000000 1 18EF49EFx       Tx   d 8 11 00 10 32 00 00 00 00
  31.000000 1 18FEF117x       Tx   d 8 00 00 2D 00 00 00 00 00
  31.000000 1 18EBFFD7x       Tx   d 8 46 F4 10 00 00 00 00 00
  31.000000 1 18F00503x       Tx   d 8 00 00 00 7D 00 00 44 00
  31.000000 1 181000EFx       Tx   d 8 11 01 6E 00 4C 04 3C 28
  31.000000 1 181100EFx       Tx   d 8 00 00 6E 00 E2 4F FC 53
  31.250000 2 18FFB2F3x       Tx   d 8 20 E8 03 F4 81 BB 80 3E
  31.250000 2 18FFB3F3x       Tx   d 8 08 78 8C A0 B4 C8 DC F0
  31.500000 2 18FFB2F3x       Tx   d 8 1F E8 03 F4 81 BB 80 3E
  31.500000 2 18FFB3F3x       Tx   d 8 08 78 8C A0 B4 C8 DC F0
  31.750000 2 18FFB2F3x       Tx   d 8 1E E8 03 F4 81 BB 80 3E
  31.750000 2 18FFB3F3x       Tx   d 8 09 78 8C A0 B4 C8 DC F0
  32.000000 2 18FF90F3x       Tx   d 8 01 A8 00 00 00 00 00 00
  32.000000 2 18FF10F3x       Tx   d 8 00 00 00 00 00 00 88 13
  32.000000 2 18FF11F3x       Tx   d 8 00 00 80 A2 00 00 00 00
  32.000000 2 18FF14F3x       Tx   d 8 00 20 4E 00 00 0C 00 00
  32.000000 2 18FF91F3x       Tx   d 8 00 00 00 01 00 00 00 00
  32.000000 2 18FFB2F3x       Tx   d 8 1E E8 03 F4 81 BB 80 3E
  32.000000 2 18FFB3F3x       Tx   d 8 09 78 8C A0 B4 C8 DC F0
  32.000000 1 18EF49EFx       Tx   d 8 11 00 10 32 00 00 00 00
  32.000000 1 18FEF117x       Tx   d 8 00 00 30 00 00 00 00 00
  32.000000 1 18EBFFD7x       Tx   d 8 46 F4 10 00 00 00 00 00
  32.000000 1 18F00503x       Tx   d 8 00 00 00 7D 00 00 44 00
  32.000000 1 181000EFx       Tx   d 8 11 01 6E 00 4C 04 3C 28
  32.000000 1 181100EFx       Tx   d 8 00 00 6E 00 00 50 60 54
  32.250000 2 18FFB2F3x       Tx   d 8 1D E8 03 F4 81 BB 80 3E
  32.250000 2 18FFB3F3x       Tx   d 8 0A 78 8C A0 B4 C8 DC F0
  32.500000 2 18FFB2F3x       Tx   d 8 1D E8 03 F4 81 BB 80 3E
  32.500000 2 18FFB3F3x       Tx   d 8 0A 78 8C A0 B4 C8 DC F0
  32.750000 2 18FFB2F3x       Tx   d 8 1C E8 03 F4 81 BB 80 3E
  32.750000 2 18FFB3F3x       Tx   d 8 09 78 8C A0 B4 C8 DC F0
  33.000000 2 18FF90F3x       Tx   d 8 01 A8 00 00 00 00 00 00
  33.000000 2 18FF10F3x       Tx   d 8 00 00 00 00 00 00 88 13
  33.000000 2 18FF11F3x       Tx   d 8 00 00 80 A2 00 00 00 00
  33.000000 2 18FF14F3x       Tx   d 8 00 20 4E 00 00 0C 00 00
  33.000000 2 18FF91F3x       Tx   d 8 00 00 00 01 00 00 00 00
  33.000000 2 18FFB2F3x       Tx   d 8 1B E8 03 F4 81 BB 80 3E
  33.000000 2 18FFB3F3x       Tx   d 8 09 78 8C A0 B4 C8 DC F0
  33.000000 1 18EF49EFx       Tx   d 8 11 00 10 32 00 00 00 00
  33.000000 1 18FEF117x       Tx   d 8 00 00 33 00 00 00 00 00
  33.000000 1 18EBFFD7x       Tx   d 8 46 F4 10 00 00 00 00 00
  33.000000 1 18F00503x       Tx   d 8 00 00 00 7D 00 00 44 00
  33.000000 1 181000EFx       Tx   d 8 11 01 6E 00 4C 04 3C 28
  33.000000 1 181100EFx       Tx   d 8 00 00 6E 00 1E 50 C4 54
  33.250000 2 18FFB2F3x       Tx   d 8 1B E8 03 F4 81 BB 80 3E
  33.250000 2 18FFB3F3x       Tx   d 8 08 78 8C A0 B4 C8 DC F0
  33.500000 2 18FFB2F3x       Tx   d 8 1A E8 03 F4 81 BB 80 3E
  33.500000 2 18FFB3F3x       Tx   d 8 08 78 8C A0 B4 C8 DC F0
  33.750000 2 18FFB2F3x       Tx   d 8 1A E8 03 F4 81 BB 80 3E
  33.750000 2 18FFB3F3x       Tx   d 8 07 78 8C A0 B4 C8 DC F0
  34.000000 2 18FF90F3x       Tx   d 8 01 A8 00 00 00 00 00 00
  34.000000 2 18FF10F3x       Tx   d 8 00 00 00 00 00 00 88 13
  34.000000 2 18FF11F3x       Tx   d 8 00 00 80 A2 00 00 00 00
  34.000000 2 18FF14F3x       Tx   d 8 00 20 4E 00 00 0C 00 00
  34.000000 2 18FF91F3x       Tx   d 8 00 00 00 01 00 00 00 00
  34.000000 2 18FFB2F3x       Tx   d 8 19 E8 03 F4 81 BB 80 3E
  34.000000 2 18FFB3F3x       Tx   d 8 07 78 8C A0 B4 C8 DC F0
  34.000000 1 18EF49EFx       Tx   d 8 11 00 10 32 00 00 00 00
  34.000000 1 18FEF117x       Tx   d 8 00 00 36 00 00 00 00 00
  34.000000 1 18EBFFD7x       Tx   d 8 46 F4 10 00 00 00 00 00
  34.000000 1 18F00503x       Tx   d 8 00 00 00 7D 00 00 44 00
  34.000000 1 181000EFx       Tx   d 8 11 01 6E 00 4C 04 3C 28
  34.000000 1 181100EFx       Tx   d 8 00 00 6E 00 3C 50 28 55
  34.250000 2 18FFB2F3x       Tx   d 8 18 E8 03 F4 81 BB 80 3E
  34.250000 2 18FFB3F3x       Tx   d 8 07 78 8C A0 B4 C8 DC F0
  34.500000 2 18FFB2F3x       Tx   d 8 18 E8 03 F4 81 BB 80 3E
  34.500000 2 18FFB3F3x       Tx   d 8 06 78 8C A0 B4 C8 DC F0
  34.750000 2 18FFB2F3x       Tx   d 8 17 E8 03 F4 81 BB 80 3E
  34.750000 2 18FFB3F3x       Tx   d 8 06 78 8C A0 B4 C8 DC F0
  35.000000 2 18FF90F3x       Tx   d 8 01 A8 00 00 00 00 00 00
  35.000000 2 18FF10F3x       Tx   d 8 00 00 00 00 00 00 88 13
  35.000000 2 18FF11F3x       Tx   d 8 00 00 80 A2 00 00 00 00
  35.000000 2 18FF14F3x       Tx   d 8 00 20 4E 00 00 0C 00 00
  35.000000 2 18FF91F3x       Tx   d 8 00 00 00 01 00 00 00 00
  35.000000 2 18FFB2F3x       Tx   d 8 17 E8 03 F4 81 BB 80 3E
  35.000000 2 18FFB3F3x       Tx   d 8 05 78 8C A0 B4 C8 DC F0
  35.000000 1 18EF49EFx       Tx   d 8 11 00 10 32 00 00 00 00
  35.000000 1 18FEF117x       Tx   d 8 00 00 39 00 00 00 00 00
  35.000000 1 18EBFFD7x       Tx   d 8 46 F4 10 00 00 00 00 00
  35.000000 1 18F00503x       Tx   d 8 00 00 00 7D 00 00 44 00
  35.000000 1 181000EFx       Tx   d 8 11 01 6E 00 4C 04 3C 28
  35.000000 1 181100EFx       Tx   d 8 00 00 6E 00 5A 50 8C 55
  35.250000 2 18FFB2F3x       Tx   d 8 16 E8 03 F4 81 BB 80 3E
  35.250000 2 18FFB3F3x       Tx   d 8 05 78 8C A0 B4 C8 DC F0
  35.500000 2 18FFB2F3x       Tx   d 8 15 E8 03 F4 81 BB 80 3E
  35.500000 2 18FFB3F3x       Tx   d 8 04 78 8C A0 B4 C8 DC F0
  35.750000 2 18FFB2F3x       Tx   d 8 15 E8 03 F4 81 BB 80 3E
  35.750000 2 18FFB3F3x       Tx   d 8 04 78 8C A0 B4 C8 DC F0
  36.000000 2 18FF90F3x       Tx   d 8 01 A8 00 00 00 00 00 00
  36.000000 2 18FF10F3x       Tx   d 8 00 00 00 00 00 00 88 13
  36.000000 2 18FF11F3x       Tx   d 8 00 00 80 A2 00 00 00 00
  36.000000 2 18FF14F3x       Tx   d 8 00 20 4E 00 00 0C 00 00
  36.000000 2 18FF91F3x       Tx   d 8 00 00 00 01 00 00 00 00
  36.000000 2 18FFB2F3x       Tx   d 8 14 E8 03 F4 81 BB 80 3E
  36.000000 2 18FFB3F3x       Tx   d 8 03 78 8C A0 B4 C8 DC F0
  36.000000 1 18EF49EFx       Tx   d 8 11 00 10 32 00 00 00 00
  36.000000 1 18FEF117x       Tx   d 8 00 00 3C 00 00 00 00 00
  36.000000 1 18EBFFD7x       Tx   d 8 46 F4 10 00 00 00 00 00
  36.000000 1 18F00503x       Tx   d 8 00 00 00 7D 00 00 44 00
  36.000000 1 181000EFx       Tx   d 8 11 01 6E 00 4C 04 3C 28
  36.000000 1 181100EFx       Tx   d 8 00 00 6E 00 78 50 F0 55
  36.250000 2 18FFB2F3x       Tx   d 8 14 E8 03 F4 81 BB 80 3E
  36.250000 2 18FFB3F3x       Tx   d 8 03 78 8C A0 B4 C8 DC F0
  36.500000 2 18FFB2F3x       Tx   d 8 13 E8 03 F4 81 BB 80 3E
  36.500000 2 18FFB3F3x       Tx   d 8 02 78 8C A0 B4 C8 DC F0
  36.750000 2 18FFB2F3x       Tx   d 8 12 E8 03 F4 81 BB 80 3E
  36.750000 2 18FFB3F3x       Tx   d 8 02 78 8C A0 B4 C8 DC F0
  37.000000 2 18FF90F3x       Tx   d 8 01 A8 00 00 00 00 00 00
  37.000000 2 18FF10F3x       Tx   d 8 00 00 00 00 00 00 88 13
  37.000000 2 18FF11F3x       Tx   d 8 00 00 80 A2 00 00 00 00
  37.000000 2 18FF14F3x       Tx   d 8 00 20 4E 00 00 0C 00 00
  37.000000 2 18FF91F3x       Tx   d 8 00 00 00 01 00 00 00 00
  37.000000 2 18FFB2F3x       Tx   d 8 12 E8 03 F4 81 BB 80 3E
  37.000000 2 18FFB3F3x       Tx   d 8 01 78 8C A0 B4 C8 DC F0
  37.000000 1 18EF49EFx       Tx   d 8 11 00 10 32 00 00 00 00
  37.000000 1 18FEF117x       Tx   d 8 00 00 3C 00 00 00 00 00
  37.000000 1 18EBFFD7x       Tx   d 8 46 F4 10 00 00 00 00 00
  37.000000 1 18F00503x       Tx   d 8 00 00 00 7D 00 00 44 00
  37.000000 1 181000EFx       Tx   d 8 11 01 6E 00 4C 04 3C 28
  37.000000 1 181100EFx       Tx   d 8 00 00 6E 00 78 50 F0 55
  37.250000 2 18FFB2F3x       Tx   d 8 11 E8 03 F4 81 BB 80 3E
  37.250000 2 18FFB3F3x       Tx   d 8 01 78 8C A0 B4 C8 DC F0
  37.500000 2 18FFB2F3x       Tx   d 8 11 E8 03 F4 81 BB 80 3E
  37.500000 2 18FFB3F3x       Tx   d 8 01 78 8C A0 B4 C8 DC F0
  37.750000 2 18FFB2F3x       Tx   d 8 10 E8 03 F4 81 BB 80 3E
  37.750000 2 18FFB3F3x       Tx   d 8 01 78 8C A0 B4 C8 DC F0
  38.000000 2 18FF90F3x       Tx   d 8 01 A8 00 00 00 00 00 00
  38.000000 2 18FF10F3x       Tx   d 8 00 00 00 00 00 00 88 13
  38.000000 2 18FF11F3x       Tx   d 8 00 00 80 A2 00 00 00 00
  38.000000 2 18FF14F3x       Tx   d 8 00 20 4E 00 00 0C 00 00
  38.000000 2 18FF91F3x       Tx   d 8 00 00 00 01 00 00 00 00
  38.000000 2 18FFB2F3x       Tx   d 8 0F E8 03 F4 81 BB 80 3E
  38.000000 2 18FFB3F3x       Tx   d 8 02 78 8C A0 B4 C8 DC F0
  38.000000 1 18EF49EFx       Tx   d 8 11 00 10 32 00 00 00 00
  38.000000 1 18FEF117x       Tx   d 8 00 00 3C 00 00 00 00 00
  38.000000 1 18EBFFD7x       Tx   d 8 46 F4 10 00 00 00 00 00
  38.000000 1 18F00503x       Tx   d 8 00 00 00 7D 00 00 44 00
  38.000000 1 181000EFx       Tx   d 8 11 01 6E 00 4C 04 3C 28
  38.000000 1 181100EFx       Tx   d 8 00 00 6E 00 78 50 F0 55
  38.250000 2 18FFB2F3x       Tx   d 8 0F E8 03 F4 81 BB 80 3E
  38.250000 2 18FFB3F3x       Tx   d 8 02 78 8C A0 B4 C8 DC F0
  38.500000 2 18FFB2F3x       Tx   d 8 0E E8 03 F4 81 BB 80 3E
  38.500000 2 18FFB3F3x       Tx   d 8 03 78 8C A0 B4 C8 DC F0
  38.750000 2 18FFB2F3x       Tx   d 8 0D E8 03 F4 81 BB 80 3E
  38.750000 2 18FFB3F3x       Tx   d 8 03 78 8C A0 B4 C8 DC F0
  39.000000 2 18FF90F3x       Tx   d 8 01 A8 00 00 00 00 00 00
  39.000000 2 18FF10F3x       Tx   d 8 00 00 00 00 00 00 88 13
  39.000000 2 18FF11F3x       Tx   d 8 00 00 80 A2 00 00 00 00
  39.000000 2 18FF14F3x       Tx   d 8 00 20 4E 00 00 0C 00 00
  39.000000 2 18FF91F3x       Tx   d 8 00 00 00 01 00 00 00 00
  39.000000 2 18FFB2F3x       Tx   d 8 0D E8 03 F4 81 BB 80 3E
  39.000000 2 18FFB3F3x       Tx   d 8 03 78 8C A0 B4 C8 DC F0
  39.000000 1 18EF49EFx       Tx   d 8 11 00 10 32 00 00 00 00
  39.000000 1 18FEF117x       Tx   d 8 00 00 3C 00 00 00 00 00
  39.000000 1 18EBFFD7x       Tx   d 8 46 F4 10 00 00 00 00 00
  39.000000 1 18F00503x       Tx   d 8 00 00 00 7D 00 00 44 00
  39.000000 1 181000EFx       Tx   d 8 11 01 6E 00 4C 04 3C 28
  39.000000 1 181100EFx       Tx   d 8 00 00 6E 00 78 50 F0 55
  39.250000 2 18FFB2F3x       Tx   d 8 0C E8 03 F4 81 BB 80 3E
  39.250000 2 18FFB3F3x       Tx   d 8 04 78 8C A0 B4 C8 DC F0
  39.500000 2 18FFB2F3x       Tx   d 8 0C E8 03 F4 81 BB 80 3E
  39.500000 2 18FFB3F3x       Tx   d 8 04 78 8C A0 B4 C8 DC F0
  39.750000 2 18FFB2F3x       Tx   d 8 0B E8 03 F4 81 BB 80 3E
  39.750000 2 18FFB3F3x       Tx   d 8 05 78 8C A0 B4 C8 DC F0
  40.000000 2 18FF90F3x       Tx   d 8 01 A8 00 00 00 00 00 00
  40.000000 2 18FF10F3x       Tx   d 8 00 00 00 00 00 00 88 13
  40.000000 2 18FF11F3x       Tx   d 8 00 00 80 A2 00 00 00 00
  40.000000 2 18FF14F3x       Tx   d 8 00 20 4E 00 00 0C 00 00
  40.000000 2 18FF91F3x       Tx   d 8 00 00 00 01 00 00 00 00
  40.000000 2 18FFB2F3x       Tx   d 8 0A E8 03 F4 81 BB 80 3E
  40.000000 2 18FFB3F3x       Tx   d 8 05 78 8C A0 B4 C8 DC F0
  40.000000 1 18EF49EFx       Tx   d 8 11 00 10 32 00 00 00 00
  40.000000 1 18FEF117x       Tx   d 8 00 00 3C 00 00 00 00 00
  40.000000 1 18EBFFD7x       Tx   d 8 46 F4 10 00 00 00 00 00
  40.000000 1 18F00503x       Tx   d 8 00 00 00 7D 00 00 44 00
  40.000000 1 181000EFx       Tx   d 8 11 01 6E 00 4C 04 3C 28
  40.000000 1 181100EFx       Tx   d 8 00 00 6E 00 78 50 F0 55
  40.250000 2 18FFB2F3x       Tx   d 8 0A E8 03 F4 81 BB 80 3E
  40.250000 2 18FFB3F3x       Tx   d 8 06 78 8C A0 B4 C8 DC F0
  40.500000 2 18FFB2F3x       Tx   d 8 09 E8 03 F4 81 BB 80 3E
  40.500000 2 18FFB3F3x       Tx   d 8 06 78 8C A0 B4 C8 DC F0
  40.750000 2 18FFB2F3x       Tx   d 8 09 E8 03 F4 81 BB 80 3E
  40.750000 2 18FFB3F3x       Tx   d 8 07 78 8C A0 B4 C8 DC F0
  41.000000 2 18FF90F3x       Tx   d 8 01 A8 00 00 00 00 00 00
  41.000000 2 18FF10F3x       Tx   d 8 00 00 00 00 00 00 88 13
  41.000000 2 18FF11F3x       Tx   d 8 00 00 80 A2 00 00 00 00
  41.000000 2 18FF14F3x       Tx   d 8 00 20 4E 00 00 0C 00 00
  41.000000 2 18FF91F3x       Tx   d 8 00 00 00 01 00 00 00 00
  41.000000 2 18FFB2F3x       Tx   d 8 08 E8 03 F4 81 BB 80 3E
  41.000000 2 18FFB3F3x       Tx   d 8 07 78 8C A0 B4 C8 DC F0
  41.000000 1 18EF49EFx       Tx   d 8 11 00 10 32 00 00 00 00
  41.000000 1 18FEF117x       Tx   d 8 00 00 3C 00 00 00 00 00
  41.000000 1 18EBFFD7x       Tx   d 8 46 F4 10 00 00 00 00 00
  41.000000 1 18F00503x       Tx   d 8 00 00 00 7D 00 00 44 00
  41.000000 1 181000EFx       Tx   d 8 11 01 6E 00 4C 04 3C 28
  41.000000 1 181100EFx       Tx   d 8 00 00 6E 00 78 50 F0 55
